!Agilent Technologies,E5071C,MY46520295,B.13.20
!Date: Fri Feb 09 07:53:54 2024
!Data & Calibration Information:
!Freq	S11:SOLT2(ON)
!PortZ  Port1:50+j0
!Above PortZ is port z conversion or system Z0 setting when saving the data.
!When reading, reference impedance value at option line is always used.
# Hz S RI R 50
300000	-9.695331e-001	8.023789e-002
10298500	-1.004355e+000	-2.875348e-004
20297000	-1.013987e+000	7.209666e-005
30295500	-9.993048e-001	3.099370e-002
40294000	-9.952870e-001	3.163578e-002
50292500	-1.001862e+000	4.218600e-002
60291000	-9.945802e-001	5.629823e-002
70289500	-9.929219e-001	6.347484e-002
80288000	-9.937905e-001	6.893797e-002
90286500	-9.906652e-001	7.870060e-002
100285000	-9.919780e-001	8.663319e-002
110283500	-9.912063e-001	9.537058e-002
120282000	-9.896301e-001	1.031608e-001
130280500	-9.893257e-001	1.100644e-001
140279000	-9.885245e-001	1.188784e-001
150277500	-9.872355e-001	1.257528e-001
160276000	-9.862400e-001	1.337841e-001
170274500	-9.845881e-001	1.419007e-001
180273000	-9.825734e-001	1.514364e-001
190271500	-9.811589e-001	1.592531e-001
200270000	-9.801987e-001	1.669671e-001
210268500	-9.782073e-001	1.756347e-001
220267000	-9.771386e-001	1.834782e-001
230265500	-9.737922e-001	1.913493e-001
240264000	-9.729420e-001	1.990023e-001
250262500	-9.712181e-001	2.071783e-001
260261000	-9.696147e-001	2.145239e-001
270259500	-9.677765e-001	2.222013e-001
280258000	-9.669096e-001	2.305372e-001
290256500	-9.632003e-001	2.376323e-001
300255000	-9.631704e-001	2.455286e-001
310253500	-9.604072e-001	2.529111e-001
320252000	-9.571212e-001	2.613374e-001
330250500	-9.554087e-001	2.685857e-001
340249000	-9.534867e-001	2.761430e-001
350247500	-9.504023e-001	2.833614e-001
360246000	-9.484959e-001	2.918133e-001
370244500	-9.460695e-001	2.988432e-001
380243000	-9.427596e-001	3.068927e-001
390241500	-9.412347e-001	3.148341e-001
400240000	-9.382043e-001	3.214061e-001
410238500	-9.359347e-001	3.286671e-001
420237000	-9.329522e-001	3.360695e-001
430235500	-9.297648e-001	3.435390e-001
440234000	-9.272768e-001	3.500133e-001
450232500	-9.249582e-001	3.580944e-001
460231000	-9.223334e-001	3.649851e-001
470229500	-9.185571e-001	3.727097e-001
480228000	-9.160959e-001	3.795555e-001
490226500	-9.127165e-001	3.862178e-001
500225000	-9.089926e-001	3.931076e-001
510223500	-9.067663e-001	4.000179e-001
520222000	-9.036241e-001	4.064910e-001
530220500	-9.003542e-001	4.134944e-001
540219000	-8.972293e-001	4.200762e-001
550217500	-8.944755e-001	4.272209e-001
560216000	-8.906233e-001	4.331211e-001
570214500	-8.873898e-001	4.407525e-001
580213000	-8.835905e-001	4.471194e-001
590211500	-8.807108e-001	4.535444e-001
600210000	-8.773172e-001	4.599978e-001
610208500	-8.742777e-001	4.661844e-001
620207000	-8.708284e-001	4.728717e-001
630205500	-8.669868e-001	4.789840e-001
640204000	-8.633663e-001	4.854479e-001
650202500	-8.606343e-001	4.924403e-001
660201000	-8.562648e-001	4.978401e-001
670199500	-8.535878e-001	5.034750e-001
680198000	-8.495112e-001	5.099349e-001
690196500	-8.462111e-001	5.160322e-001
700195000	-8.417035e-001	5.217093e-001
710193500	-8.384113e-001	5.277519e-001
720192000	-8.347885e-001	5.333817e-001
730190500	-8.309981e-001	5.391635e-001
740189000	-8.267303e-001	5.445075e-001
750187500	-8.235575e-001	5.503873e-001
760186000	-8.203231e-001	5.561859e-001
770184500	-8.164466e-001	5.618962e-001
780183000	-8.137453e-001	5.673588e-001
790181500	-8.096538e-001	5.731720e-001
800180000	-8.049519e-001	5.781661e-001
810178500	-8.013868e-001	5.831336e-001
820177000	-7.976758e-001	5.889369e-001
830175500	-7.939810e-001	5.931753e-001
840174000	-7.906843e-001	5.986746e-001
850172500	-7.869774e-001	6.031237e-001
860171000	-7.835924e-001	6.089197e-001
870169500	-7.801795e-001	6.140332e-001
880168000	-7.765076e-001	6.194374e-001
890166500	-7.729596e-001	6.258401e-001
900165000	-7.689290e-001	6.303739e-001
910163500	-7.651656e-001	6.355783e-001
920162000	-7.609700e-001	6.413881e-001
930160500	-7.566481e-001	6.452535e-001
940159000	-7.521596e-001	6.504850e-001
950157500	-7.484904e-001	6.550314e-001
960156000	-7.448444e-001	6.591755e-001
970154500	-7.407127e-001	6.633232e-001
980153000	-7.367708e-001	6.676960e-001
990151500	-7.335828e-001	6.723313e-001
1000150000	-7.293984e-001	6.763917e-001
1010148500	-7.257474e-001	6.810364e-001
1020147000	-7.218477e-001	6.854953e-001
1030145500	-7.186135e-001	6.901932e-001
1040144000	-7.141445e-001	6.945094e-001
1050142500	-7.103652e-001	6.984943e-001
1060141000	-7.064631e-001	7.028456e-001
1070139500	-7.029796e-001	7.058590e-001
1080138000	-7.002436e-001	7.100514e-001
1090136500	-6.966979e-001	7.143858e-001
1100135000	-6.934379e-001	7.187524e-001
1110133500	-6.894991e-001	7.240057e-001
1120132000	-6.858616e-001	7.279266e-001
1130130500	-6.819386e-001	7.321614e-001
1140129000	-6.783426e-001	7.363047e-001
1150127500	-6.741764e-001	7.406581e-001
1160126000	-6.697388e-001	7.444303e-001
1170124500	-6.666557e-001	7.486792e-001
1180123000	-6.630032e-001	7.529198e-001
1190121500	-6.586208e-001	7.564358e-001
1200120000	-6.542899e-001	7.600742e-001
1210118500	-6.508078e-001	7.631071e-001
1220117000	-6.468625e-001	7.665378e-001
1230115500	-6.430467e-001	7.694250e-001
1240114000	-6.396654e-001	7.730474e-001
1250112500	-6.364906e-001	7.764128e-001
1260111000	-6.339105e-001	7.798896e-001
1270109500	-6.302767e-001	7.831503e-001
1280108000	-6.277469e-001	7.868835e-001
1290106500	-6.250472e-001	7.905235e-001
1300105000	-6.224859e-001	7.949313e-001
1310103500	-6.187862e-001	7.987136e-001
1320102000	-6.142021e-001	8.029918e-001
1330100500	-6.106872e-001	8.061713e-001
1340099000	-6.064925e-001	8.091390e-001
1350097500	-6.032583e-001	8.127238e-001
1360096000	-5.995628e-001	8.161465e-001
1370094500	-5.958798e-001	8.182887e-001
1380093000	-5.922058e-001	8.215261e-001
1390091500	-5.892439e-001	8.244376e-001
1400090000	-5.856388e-001	8.275192e-001
1410088500	-5.823378e-001	8.294260e-001
1420087000	-5.798237e-001	8.320275e-001
1430085500	-5.768642e-001	8.355209e-001
1440084000	-5.731586e-001	8.378239e-001
1450082500	-5.695825e-001	8.399381e-001
1460081000	-5.672053e-001	8.422578e-001
1470079500	-5.644858e-001	8.441886e-001
1480078000	-5.621940e-001	8.478008e-001
1490076500	-5.593223e-001	8.497207e-001
1500075000	-5.568753e-001	8.520790e-001
1510073500	-5.543828e-001	8.546031e-001
1520072000	-5.523824e-001	8.576064e-001
1530070500	-5.500467e-001	8.589238e-001
1540069000	-5.475401e-001	8.620931e-001
1550067500	-5.449576e-001	8.641234e-001
1560066000	-5.419752e-001	8.666667e-001
1570064500	-5.394355e-001	8.685220e-001
1580063000	-5.382268e-001	8.698432e-001
1590061500	-5.364776e-001	8.717284e-001
1600060000	-5.342586e-001	8.741557e-001
1610058500	-5.313126e-001	8.753099e-001
1620057000	-5.288161e-001	8.772368e-001
1630055500	-5.274956e-001	8.795730e-001
1640054000	-5.257719e-001	8.797811e-001
1650052500	-5.241404e-001	8.811428e-001
1660051000	-5.228729e-001	8.808828e-001
1670049500	-5.219044e-001	8.816181e-001
1680048000	-5.207308e-001	8.819955e-001
1690046500	-5.214344e-001	8.826589e-001
1700045000	-5.212953e-001	8.824951e-001
1710043500	-5.220742e-001	8.827343e-001
1720042000	-5.221640e-001	8.829782e-001
1730040500	-5.236134e-001	8.836393e-001
1740039000	-5.232446e-001	8.831321e-001
1750037500	-5.245689e-001	8.829628e-001
1760036000	-5.267998e-001	8.834273e-001
1770034500	-5.288504e-001	8.832568e-001
1780033000	-5.311799e-001	8.820441e-001
1790031500	-5.348551e-001	8.804132e-001
1800030000	-5.387242e-001	8.787592e-001
1810028500	-5.431645e-001	8.770976e-001
1820027000	-5.485355e-001	8.757759e-001
1830025500	-5.529942e-001	8.735282e-001
1840024000	-5.597327e-001	8.697366e-001
1850022500	-5.675118e-001	8.669863e-001
1860021000	-5.763276e-001	8.615782e-001
1870019500	-5.867704e-001	8.572454e-001
1880018000	-5.985505e-001	8.506441e-001
1890016500	-6.100768e-001	8.454083e-001
1900015000	-6.253013e-001	8.378023e-001
1910013500	-6.436231e-001	8.273163e-001
1920012000	-6.646099e-001	8.135164e-001
1930010500	-6.891021e-001	7.986834e-001
1940009000	-7.155906e-001	7.803841e-001
1950007500	-7.505179e-001	7.557152e-001
1960006000	-7.936871e-001	7.240528e-001
1970004500	-8.412583e-001	6.882817e-001
1980003000	-8.992319e-001	6.305661e-001
1990001500	-9.757597e-001	5.564861e-001
2000000000	-1.065974e+000	4.415294e-001
