!Agilent Technologies,E5071C,MY46520295,B.13.20
!Date: Fri Feb 09 07:55:26 2024
!Data & Calibration Information:
!Freq	S11:SOLT2(ON)
!PortZ  Port1:50+j0
!Above PortZ is port z conversion or system Z0 setting when saving the data.
!When reading, reference impedance value at option line is always used.
# Hz S RI R 50
300000	1.000616e+000	-2.567380e-004
10298500	9.977305e-001	-4.755325e-002
20297000	9.939236e-001	-9.343234e-002
30295500	9.892705e-001	-1.392539e-001
40294000	9.807623e-001	-1.845335e-001
50292500	9.710867e-001	-2.283198e-001
60291000	9.599988e-001	-2.728989e-001
70289500	9.462000e-001	-3.157295e-001
80288000	9.309272e-001	-3.584389e-001
90286500	9.134826e-001	-4.001901e-001
100285000	8.949135e-001	-4.405460e-001
110283500	8.738087e-001	-4.794646e-001
120282000	8.520133e-001	-5.170674e-001
130280500	8.287076e-001	-5.546221e-001
140279000	8.036283e-001	-5.890994e-001
150277500	7.778685e-001	-6.233266e-001
160276000	7.512341e-001	-6.563271e-001
170274500	7.222662e-001	-6.876665e-001
180273000	6.922983e-001	-7.166749e-001
190271500	6.629015e-001	-7.451165e-001
200270000	6.317191e-001	-7.716677e-001
210268500	5.988987e-001	-7.962795e-001
220267000	5.670695e-001	-8.197433e-001
230265500	5.333370e-001	-8.415871e-001
240264000	4.999128e-001	-8.614273e-001
250262500	4.663890e-001	-8.797211e-001
260261000	4.329844e-001	-8.970985e-001
270259500	3.989121e-001	-9.123601e-001
280258000	3.653570e-001	-9.274716e-001
290256500	3.309291e-001	-9.391615e-001
300255000	2.975432e-001	-9.516560e-001
310253500	2.627516e-001	-9.615398e-001
320252000	2.290668e-001	-9.696074e-001
330250500	1.954245e-001	-9.771678e-001
340249000	1.625431e-001	-9.830135e-001
350247500	1.290458e-001	-9.872893e-001
360246000	9.626355e-002	-9.910205e-001
370244500	6.427918e-002	-9.933975e-001
380243000	3.218222e-002	-9.950298e-001
390241500	7.832540e-004	-9.959121e-001
400240000	-2.920429e-002	-9.954043e-001
410238500	-5.933780e-002	-9.937573e-001
420237000	-8.927903e-002	-9.913533e-001
430235500	-1.184255e-001	-9.880249e-001
440234000	-1.463859e-001	-9.845141e-001
450232500	-1.749076e-001	-9.804389e-001
460231000	-2.024448e-001	-9.750540e-001
470229500	-2.299643e-001	-9.684674e-001
480228000	-2.562027e-001	-9.614349e-001
490226500	-2.819618e-001	-9.539519e-001
500225000	-3.071980e-001	-9.461835e-001
510223500	-3.310770e-001	-9.377925e-001
520222000	-3.548712e-001	-9.290527e-001
530220500	-3.772224e-001	-9.201196e-001
540219000	-3.997145e-001	-9.102552e-001
550217500	-4.221450e-001	-9.009966e-001
560216000	-4.426670e-001	-8.903330e-001
570214500	-4.644365e-001	-8.800785e-001
580213000	-4.849285e-001	-8.689079e-001
590211500	-5.042215e-001	-8.577812e-001
600210000	-5.233914e-001	-8.462592e-001
610208500	-5.416706e-001	-8.344474e-001
620207000	-5.604791e-001	-8.218871e-001
630205500	-5.779728e-001	-8.097107e-001
640204000	-5.946108e-001	-7.971881e-001
650202500	-6.116530e-001	-7.849481e-001
660201000	-6.268106e-001	-7.723825e-001
670199500	-6.416716e-001	-7.607733e-001
680198000	-6.572051e-001	-7.471823e-001
690196500	-6.713433e-001	-7.345988e-001
700195000	-6.852948e-001	-7.212836e-001
710193500	-6.991853e-001	-7.086096e-001
720192000	-7.121318e-001	-6.954685e-001
730190500	-7.244117e-001	-6.823084e-001
740189000	-7.360176e-001	-6.683758e-001
750187500	-7.480958e-001	-6.555578e-001
760186000	-7.598120e-001	-6.430823e-001
770184500	-7.708430e-001	-6.297970e-001
780183000	-7.814915e-001	-6.177026e-001
790181500	-7.919491e-001	-6.045706e-001
800180000	-8.010327e-001	-5.911906e-001
810178500	-8.102747e-001	-5.787561e-001
820177000	-8.199027e-001	-5.658281e-001
830175500	-8.279079e-001	-5.530453e-001
840174000	-8.369613e-001	-5.408067e-001
850172500	-8.450134e-001	-5.284891e-001
860171000	-8.534059e-001	-5.158303e-001
870169500	-8.601204e-001	-5.040271e-001
880168000	-8.688157e-001	-4.910025e-001
890166500	-8.763854e-001	-4.788039e-001
900165000	-8.831214e-001	-4.656518e-001
910163500	-8.899288e-001	-4.539236e-001
920162000	-8.961926e-001	-4.411536e-001
930160500	-9.015921e-001	-4.295372e-001
940159000	-9.077354e-001	-4.172026e-001
950157500	-9.132388e-001	-4.056046e-001
960156000	-9.182943e-001	-3.941563e-001
970154500	-9.229700e-001	-3.825983e-001
980153000	-9.277799e-001	-3.709483e-001
990151500	-9.325623e-001	-3.596457e-001
1000150000	-9.366404e-001	-3.483397e-001
1010148500	-9.409658e-001	-3.373474e-001
1020147000	-9.451548e-001	-3.263509e-001
1030145500	-9.496842e-001	-3.159235e-001
1040144000	-9.529240e-001	-3.048641e-001
1050142500	-9.566842e-001	-2.944929e-001
1060141000	-9.600942e-001	-2.840594e-001
1070139500	-9.622709e-001	-2.743646e-001
1080138000	-9.662174e-001	-2.650521e-001
1090136500	-9.695452e-001	-2.547825e-001
1100135000	-9.730244e-001	-2.447002e-001
1110133500	-9.770415e-001	-2.344528e-001
1120132000	-9.793822e-001	-2.243839e-001
1130130500	-9.820694e-001	-2.141291e-001
1140129000	-9.852601e-001	-2.047341e-001
1150127500	-9.873949e-001	-1.946529e-001
1160126000	-9.893439e-001	-1.845474e-001
1170124500	-9.917363e-001	-1.757768e-001
1180123000	-9.944879e-001	-1.664262e-001
1190121500	-9.957997e-001	-1.570807e-001
1200120000	-9.971953e-001	-1.471701e-001
1210118500	-9.985008e-001	-1.384595e-001
1220117000	-9.994183e-001	-1.305458e-001
1230115500	-1.000718e+000	-1.219880e-001
1240114000	-1.001590e+000	-1.139325e-001
1250112500	-1.002902e+000	-1.059365e-001
1260111000	-1.004795e+000	-9.838822e-002
1270109500	-1.005945e+000	-9.089117e-002
1280108000	-1.008416e+000	-8.316052e-002
1290106500	-1.010406e+000	-7.613981e-002
1300105000	-1.012551e+000	-6.869273e-002
1310103500	-1.014120e+000	-6.040996e-002
1320102000	-1.015351e+000	-5.195350e-002
1330100500	-1.016094e+000	-4.456455e-002
1340099000	-1.016211e+000	-3.682589e-002
1350097500	-1.017906e+000	-2.910357e-002
1360096000	-1.017943e+000	-2.167387e-002
1370094500	-1.018334e+000	-1.511658e-002
1380093000	-1.018553e+000	-7.399257e-003
1390091500	-1.018527e+000	-1.146671e-003
1400090000	-1.019486e+000	5.693331e-003
1410088500	-1.019242e+000	1.162527e-002
1420087000	-1.019768e+000	1.750772e-002
1430085500	-1.021173e+000	2.308920e-002
1440084000	-1.021364e+000	2.971290e-002
1450082500	-1.021235e+000	3.517877e-002
1460081000	-1.021871e+000	4.037782e-002
1470079500	-1.021745e+000	4.539932e-002
1480078000	-1.023026e+000	5.111829e-002
1490076500	-1.022280e+000	5.675394e-002
1500075000	-1.022806e+000	6.142455e-002
1510073500	-1.023589e+000	6.619232e-002
1520072000	-1.024433e+000	7.147121e-002
1530070500	-1.024248e+000	7.585820e-002
1540069000	-1.025349e+000	8.111899e-002
1550067500	-1.025799e+000	8.536167e-002
1560066000	-1.025706e+000	9.058934e-002
1570064500	-1.025728e+000	9.465029e-002
1580063000	-1.025600e+000	9.751657e-002
1590061500	-1.026504e+000	1.006699e-001
1600060000	-1.026771e+000	1.048959e-001
1610058500	-1.025916e+000	1.086535e-001
1620057000	-1.025789e+000	1.123360e-001
1630055500	-1.026521e+000	1.159644e-001
1640054000	-1.025358e+000	1.183408e-001
1650052500	-1.025394e+000	1.210911e-001
1660051000	-1.024851e+000	1.234370e-001
1670049500	-1.024379e+000	1.246259e-001
1680048000	-1.023840e+000	1.260969e-001
1690046500	-1.025183e+000	1.264976e-001
1700045000	-1.024728e+000	1.265620e-001
1710043500	-1.026247e+000	1.256423e-001
1720042000	-1.026166e+000	1.253890e-001
1730040500	-1.027673e+000	1.248703e-001
1740039000	-1.027384e+000	1.251210e-001
1750037500	-1.028034e+000	1.234861e-001
1760036000	-1.029639e+000	1.220875e-001
1770034500	-1.030863e+000	1.210591e-001
1780033000	-1.031964e+000	1.185828e-001
1790031500	-1.033012e+000	1.148011e-001
1800030000	-1.033592e+000	1.099968e-001
1810028500	-1.035557e+000	1.049682e-001
1820027000	-1.037733e+000	9.912299e-002
1830025500	-1.039337e+000	9.301180e-002
1840024000	-1.040953e+000	8.361966e-002
1850022500	-1.043035e+000	7.462566e-002
1860021000	-1.044953e+000	6.273739e-002
1870019500	-1.049166e+000	5.093780e-002
1880018000	-1.050388e+000	3.652177e-002
1890016500	-1.053388e+000	2.211203e-002
1900015000	-1.056726e+000	5.093283e-003
1910013500	-1.059263e+000	-1.826175e-002
1920012000	-1.060891e+000	-4.360171e-002
1930010500	-1.063904e+000	-7.360407e-002
1940009000	-1.065479e+000	-1.080507e-001
1950007500	-1.067581e+000	-1.527313e-001
1960006000	-1.068463e+000	-2.091323e-001
1970004500	-1.067940e+000	-2.721639e-001
1980003000	-1.056619e+000	-3.535398e-001
1990001500	-1.040437e+000	-4.583898e-001
2000000000	-1.003665e+000	-5.929740e-001
