!Agilent Technologies,E5071C,MY46520295,B.13.20
!Date: Fri Feb 09 08:24:53 2024
!Data & Calibration Information:
!Freq	S11:SOLT2(ON)
!PortZ  Port1:50+j0
!Above PortZ is port z conversion or system Z0 setting when saving the data.
!When reading, reference impedance value at option line is always used.
# Hz S RI R 50
300000	9.995276e-001	-9.316452e-004
5298500	9.997527e-001	-9.163510e-003
10297000	9.994175e-001	-1.713511e-002
15295500	9.995715e-001	-2.572406e-002
20294000	9.987870e-001	-3.372717e-002
25292500	9.990241e-001	-4.217494e-002
30291000	9.979078e-001	-5.063311e-002
35289500	9.977789e-001	-5.874590e-002
40288000	9.970634e-001	-6.732478e-002
45286500	9.964265e-001	-7.548550e-002
50285000	9.956922e-001	-8.373398e-002
55283500	9.951124e-001	-9.173165e-002
60282000	9.948343e-001	-1.000403e-001
65280500	9.935045e-001	-1.081243e-001
70279000	9.926366e-001	-1.165898e-001
75277500	9.917284e-001	-1.247008e-001
80276000	9.904795e-001	-1.331011e-001
85274500	9.890939e-001	-1.411155e-001
90273000	9.879338e-001	-1.491175e-001
95271500	9.868920e-001	-1.574894e-001
100270000	9.852760e-001	-1.658902e-001
105268500	9.841665e-001	-1.733370e-001
110267000	9.828866e-001	-1.817980e-001
115265500	9.812027e-001	-1.900214e-001
120264000	9.794817e-001	-1.978032e-001
125262500	9.781819e-001	-2.059723e-001
130261000	9.761778e-001	-2.146475e-001
135259500	9.744719e-001	-2.223579e-001
140258000	9.726017e-001	-2.305146e-001
145256500	9.706026e-001	-2.381460e-001
150255000	9.683575e-001	-2.464031e-001
155253500	9.669165e-001	-2.544820e-001
160252000	9.644536e-001	-2.624445e-001
165250500	9.621392e-001	-2.703821e-001
170249000	9.601999e-001	-2.786294e-001
175247500	9.575231e-001	-2.865457e-001
180246000	9.547692e-001	-2.945941e-001
185244500	9.527991e-001	-3.021140e-001
190243000	9.504885e-001	-3.103547e-001
195241500	9.475112e-001	-3.175237e-001
200240000	9.449980e-001	-3.257057e-001
205238500	9.423050e-001	-3.332933e-001
210237000	9.394384e-001	-3.408791e-001
215235500	9.368643e-001	-3.485991e-001
220234000	9.332671e-001	-3.563647e-001
225232500	9.306289e-001	-3.641303e-001
230231000	9.279713e-001	-3.712900e-001
235229500	9.249465e-001	-3.788663e-001
240228000	9.217573e-001	-3.865596e-001
245226500	9.186865e-001	-3.942457e-001
250225000	9.153244e-001	-4.017429e-001
255223500	9.122555e-001	-4.092470e-001
260222000	9.084339e-001	-4.166497e-001
265220500	9.053116e-001	-4.238853e-001
270219000	9.019897e-001	-4.311319e-001
275217500	8.985285e-001	-4.385276e-001
280216000	8.948463e-001	-4.457936e-001
285214500	8.909740e-001	-4.529114e-001
290213000	8.876814e-001	-4.601375e-001
295211500	8.837400e-001	-4.673469e-001
300210000	8.795763e-001	-4.742913e-001
305208500	8.754526e-001	-4.814715e-001
310207000	8.715645e-001	-4.886778e-001
315205500	8.676426e-001	-4.955970e-001
320204000	8.633130e-001	-5.026191e-001
325202500	8.592076e-001	-5.096309e-001
330201000	8.552926e-001	-5.166412e-001
335199500	8.510987e-001	-5.233321e-001
340198000	8.468602e-001	-5.302129e-001
345196500	8.429495e-001	-5.368604e-001
350195000	8.383484e-001	-5.436126e-001
355193500	8.338459e-001	-5.499105e-001
360192000	8.296784e-001	-5.567238e-001
365190500	8.252091e-001	-5.634692e-001
370189000	8.205380e-001	-5.700555e-001
375187500	8.161062e-001	-5.766175e-001
380186000	8.119384e-001	-5.827555e-001
385184500	8.068019e-001	-5.891712e-001
390183000	8.024375e-001	-5.956891e-001
395181500	7.974339e-001	-6.020510e-001
400180000	7.926083e-001	-6.081150e-001
405178500	7.880043e-001	-6.143875e-001
410177000	7.831790e-001	-6.206129e-001
415175500	7.782169e-001	-6.267419e-001
420174000	7.731901e-001	-6.326956e-001
425172500	7.681154e-001	-6.391077e-001
430171000	7.631151e-001	-6.450127e-001
435169500	7.578882e-001	-6.508807e-001
440168000	7.528722e-001	-6.573296e-001
445166500	7.475996e-001	-6.631918e-001
450165000	7.423576e-001	-6.683161e-001
455163500	7.370546e-001	-6.745568e-001
460162000	7.316607e-001	-6.804184e-001
465160500	7.269358e-001	-6.854033e-001
470159000	7.210773e-001	-6.912082e-001
475157500	7.154416e-001	-6.963908e-001
480156000	7.105951e-001	-7.024944e-001
485154500	7.052327e-001	-7.077870e-001
490153000	6.996752e-001	-7.128319e-001
495151500	6.939337e-001	-7.180409e-001
500150000	6.883974e-001	-7.232085e-001
505148500	6.828020e-001	-7.286202e-001
510147000	6.774772e-001	-7.338488e-001
515145500	6.719209e-001	-7.391984e-001
520144000	6.665631e-001	-7.442093e-001
525142500	6.604780e-001	-7.491975e-001
530141000	6.550937e-001	-7.541757e-001
535139500	6.488950e-001	-7.591649e-001
540138000	6.433825e-001	-7.641828e-001
545136500	6.375266e-001	-7.690116e-001
550135000	6.315054e-001	-7.735839e-001
555133500	6.259283e-001	-7.779112e-001
560132000	6.199636e-001	-7.830632e-001
565130500	6.140826e-001	-7.877566e-001
570129000	6.076622e-001	-7.919859e-001
575127500	6.020328e-001	-7.965240e-001
580126000	5.958963e-001	-8.012912e-001
585124500	5.897920e-001	-8.056714e-001
590123000	5.833243e-001	-8.100266e-001
595121500	5.775725e-001	-8.147115e-001
600120000	5.714630e-001	-8.185305e-001
605118500	5.653577e-001	-8.230274e-001
610117000	5.593111e-001	-8.269774e-001
615115500	5.533504e-001	-8.309448e-001
620114000	5.472122e-001	-8.350723e-001
625112500	5.412947e-001	-8.391724e-001
630111000	5.348145e-001	-8.427915e-001
635109500	5.292279e-001	-8.465466e-001
640108000	5.230011e-001	-8.508408e-001
645106500	5.170057e-001	-8.541114e-001
650105000	5.105722e-001	-8.578786e-001
655103500	5.043580e-001	-8.618153e-001
660102000	4.977410e-001	-8.656735e-001
665100500	4.917219e-001	-8.690040e-001
670099000	4.857128e-001	-8.725834e-001
675097500	4.792072e-001	-8.756894e-001
680096000	4.730547e-001	-8.794878e-001
685094500	4.665792e-001	-8.828412e-001
690093000	4.601231e-001	-8.860293e-001
695091500	4.539289e-001	-8.894567e-001
700090000	4.472625e-001	-8.927544e-001
705088500	4.409619e-001	-8.958054e-001
710087000	4.339459e-001	-8.991629e-001
715085500	4.280487e-001	-9.016963e-001
720084000	4.216635e-001	-9.049284e-001
725082500	4.149533e-001	-9.077177e-001
730081000	4.083001e-001	-9.104424e-001
735079500	4.019707e-001	-9.133004e-001
740078000	3.953294e-001	-9.156948e-001
745076500	3.894719e-001	-9.187152e-001
750075000	3.828427e-001	-9.213141e-001
755073500	3.764877e-001	-9.237527e-001
760072000	3.703830e-001	-9.265644e-001
765070500	3.639480e-001	-9.291893e-001
770069000	3.574674e-001	-9.316989e-001
775067500	3.509345e-001	-9.337592e-001
780066000	3.444029e-001	-9.363393e-001
785064500	3.381412e-001	-9.385309e-001
790063000	3.323199e-001	-9.408749e-001
795061500	3.256655e-001	-9.431810e-001
800060000	3.190722e-001	-9.456925e-001
805058500	3.131623e-001	-9.476379e-001
810057000	3.065093e-001	-9.497777e-001
815055500	3.001626e-001	-9.517418e-001
820054000	2.936297e-001	-9.542214e-001
825052500	2.868303e-001	-9.556467e-001
830051000	2.809731e-001	-9.576485e-001
835049500	2.738476e-001	-9.597257e-001
840048000	2.676082e-001	-9.606969e-001
845046500	2.608586e-001	-9.630517e-001
850045000	2.543561e-001	-9.642668e-001
855043500	2.486954e-001	-9.659966e-001
860042000	2.413030e-001	-9.676543e-001
865040500	2.354246e-001	-9.689531e-001
870039000	2.293472e-001	-9.705967e-001
875037500	2.230141e-001	-9.719169e-001
880036000	2.164451e-001	-9.737516e-001
885034500	2.103935e-001	-9.749111e-001
890033000	2.040357e-001	-9.765452e-001
895031500	1.978470e-001	-9.777854e-001
900030000	1.913818e-001	-9.789243e-001
905028500	1.856548e-001	-9.804125e-001
910027000	1.788024e-001	-9.809695e-001
915025500	1.729707e-001	-9.820586e-001
920024000	1.663880e-001	-9.833307e-001
925022500	1.606840e-001	-9.847178e-001
930021000	1.540626e-001	-9.856647e-001
935019500	1.478568e-001	-9.866922e-001
940018000	1.412746e-001	-9.871317e-001
945016500	1.350527e-001	-9.883521e-001
950015000	1.288200e-001	-9.891661e-001
955013500	1.220483e-001	-9.898594e-001
960012000	1.165354e-001	-9.904292e-001
965010500	1.100642e-001	-9.912286e-001
970009000	1.038146e-001	-9.916628e-001
975007500	9.751004e-002	-9.922520e-001
980006000	9.152052e-002	-9.928432e-001
985004500	8.523751e-002	-9.929648e-001
990003000	7.902424e-002	-9.934218e-001
995001500	7.318159e-002	-9.943763e-001
1000000000	6.747438e-002	-9.943730e-001
