!Agilent Technologies,E5071C,MY46520295,B.13.20
!Date: Fri Feb 09 08:22:53 2024
!Data & Calibration Information:
!Freq	S11:SOLT2(ON)
!PortZ  Port1:50+j0
!Above PortZ is port z conversion or system Z0 setting when saving the data.
!When reading, reference impedance value at option line is always used.
# Hz S RI R 50
300000	9.974966e-001	-2.422214e-003
5298500	9.964153e-001	-6.186799e-002
10297000	9.885168e-001	-1.167047e-001
15295500	9.822943e-001	-1.724345e-001
20294000	9.705552e-001	-2.268486e-001
25292500	9.572244e-001	-2.821026e-001
30291000	9.381415e-001	-3.346339e-001
35289500	9.184042e-001	-3.860223e-001
40288000	8.957592e-001	-4.357390e-001
45286500	8.712276e-001	-4.830971e-001
50285000	8.440367e-001	-5.294913e-001
55283500	8.157460e-001	-5.714410e-001
60282000	7.857651e-001	-6.148079e-001
65280500	7.528069e-001	-6.533906e-001
70279000	7.171541e-001	-6.897687e-001
75277500	6.842752e-001	-7.238691e-001
80276000	6.483524e-001	-7.562650e-001
85274500	6.119365e-001	-7.860835e-001
90273000	5.752166e-001	-8.128808e-001
95271500	5.380105e-001	-8.387756e-001
100270000	4.997055e-001	-8.622959e-001
105268500	4.635008e-001	-8.823748e-001
110267000	4.251991e-001	-9.008337e-001
115265500	3.873330e-001	-9.191002e-001
120264000	3.492358e-001	-9.328078e-001
125262500	3.134915e-001	-9.461802e-001
130261000	2.762576e-001	-9.577441e-001
135259500	2.393658e-001	-9.670649e-001
140258000	2.045978e-001	-9.759560e-001
145256500	1.708867e-001	-9.819358e-001
150255000	1.353313e-001	-9.874221e-001
155253500	1.024198e-001	-9.924475e-001
160252000	6.907095e-002	-9.947357e-001
165250500	3.779299e-002	-9.961804e-001
170249000	5.708127e-003	-9.972319e-001
175247500	-2.401631e-002	-9.955520e-001
180246000	-5.383663e-002	-9.948267e-001
185244500	-8.209946e-002	-9.937983e-001
190243000	-1.095307e-001	-9.921190e-001
195241500	-1.369495e-001	-9.871465e-001
200240000	-1.633347e-001	-9.824498e-001
205238500	-1.889106e-001	-9.792944e-001
210237000	-2.133265e-001	-9.748795e-001
215235500	-2.365758e-001	-9.687041e-001
220234000	-2.605829e-001	-9.619217e-001
225232500	-2.831699e-001	-9.563901e-001
230231000	-3.038204e-001	-9.499483e-001
235229500	-3.250449e-001	-9.425712e-001
240228000	-3.459874e-001	-9.353702e-001
245226500	-3.654650e-001	-9.276874e-001
250225000	-3.840826e-001	-9.202724e-001
255223500	-4.032178e-001	-9.123473e-001
260222000	-4.203424e-001	-9.040246e-001
265220500	-4.382246e-001	-8.959098e-001
270219000	-4.553269e-001	-8.879567e-001
275217500	-4.711158e-001	-8.793809e-001
280216000	-4.871564e-001	-8.709224e-001
285214500	-5.022038e-001	-8.621501e-001
290213000	-5.165362e-001	-8.538729e-001
295211500	-5.307158e-001	-8.445286e-001
300210000	-5.448647e-001	-8.353205e-001
305208500	-5.582637e-001	-8.262944e-001
310207000	-5.704232e-001	-8.166568e-001
315205500	-5.828244e-001	-8.078117e-001
320204000	-5.952722e-001	-7.986554e-001
325202500	-6.072769e-001	-7.902228e-001
330201000	-6.183952e-001	-7.814016e-001
335199500	-6.298177e-001	-7.722974e-001
340198000	-6.404491e-001	-7.635209e-001
345196500	-6.499374e-001	-7.559392e-001
350195000	-6.600871e-001	-7.466710e-001
355193500	-6.694818e-001	-7.394403e-001
360192000	-6.786688e-001	-7.297590e-001
365190500	-6.874127e-001	-7.216919e-001
370189000	-6.970983e-001	-7.128488e-001
375187500	-7.051076e-001	-7.044468e-001
380186000	-7.132482e-001	-6.972758e-001
385184500	-7.207553e-001	-6.886056e-001
390183000	-7.288999e-001	-6.807378e-001
395181500	-7.365082e-001	-6.723654e-001
400180000	-7.431587e-001	-6.636718e-001
405178500	-7.499949e-001	-6.560163e-001
410177000	-7.573202e-001	-6.481442e-001
415175500	-7.640408e-001	-6.404993e-001
420174000	-7.702331e-001	-6.328018e-001
425172500	-7.766137e-001	-6.242353e-001
430171000	-7.824199e-001	-6.167346e-001
435169500	-7.889441e-001	-6.097194e-001
440168000	-7.945075e-001	-6.017507e-001
445166500	-8.007698e-001	-5.936612e-001
450165000	-8.050495e-001	-5.866497e-001
455163500	-8.108438e-001	-5.793814e-001
460162000	-8.161130e-001	-5.718418e-001
465160500	-8.204944e-001	-5.650801e-001
470159000	-8.251252e-001	-5.577606e-001
475157500	-8.297692e-001	-5.506324e-001
480156000	-8.348495e-001	-5.437777e-001
485154500	-8.396369e-001	-5.375607e-001
490153000	-8.432557e-001	-5.303716e-001
495151500	-8.477095e-001	-5.237225e-001
500150000	-8.513857e-001	-5.170897e-001
505148500	-8.552743e-001	-5.107756e-001
510147000	-8.600482e-001	-5.046010e-001
515145500	-8.636389e-001	-4.979122e-001
520144000	-8.672951e-001	-4.915092e-001
525142500	-8.704921e-001	-4.848104e-001
530141000	-8.742404e-001	-4.790716e-001
535139500	-8.775079e-001	-4.724743e-001
540138000	-8.806739e-001	-4.663889e-001
545136500	-8.841320e-001	-4.601408e-001
550135000	-8.872498e-001	-4.544088e-001
555133500	-8.894109e-001	-4.481980e-001
560132000	-8.924920e-001	-4.420942e-001
565130500	-8.958126e-001	-4.358772e-001
570129000	-8.982886e-001	-4.301617e-001
575127500	-9.012322e-001	-4.245459e-001
580126000	-9.037207e-001	-4.183305e-001
585124500	-9.071923e-001	-4.127858e-001
590123000	-9.086294e-001	-4.065168e-001
595121500	-9.121238e-001	-4.012550e-001
600120000	-9.138993e-001	-3.960900e-001
605118500	-9.168501e-001	-3.903040e-001
610117000	-9.185017e-001	-3.850763e-001
615115500	-9.209791e-001	-3.801780e-001
620114000	-9.232378e-001	-3.749204e-001
625112500	-9.249704e-001	-3.696847e-001
630111000	-9.270193e-001	-3.648527e-001
635109500	-9.287580e-001	-3.599340e-001
640108000	-9.313900e-001	-3.548632e-001
645106500	-9.331297e-001	-3.500853e-001
650105000	-9.347264e-001	-3.451486e-001
655103500	-9.364964e-001	-3.398543e-001
660102000	-9.387601e-001	-3.348174e-001
665100500	-9.402093e-001	-3.304982e-001
670099000	-9.423056e-001	-3.255297e-001
675097500	-9.429973e-001	-3.211909e-001
680096000	-9.451124e-001	-3.164055e-001
685094500	-9.461174e-001	-3.110353e-001
690093000	-9.477276e-001	-3.066095e-001
695091500	-9.496739e-001	-3.021680e-001
700090000	-9.509120e-001	-2.974776e-001
705088500	-9.526204e-001	-2.927583e-001
710087000	-9.541839e-001	-2.876754e-001
715085500	-9.544470e-001	-2.831908e-001
720084000	-9.566834e-001	-2.790241e-001
725082500	-9.578108e-001	-2.743032e-001
730081000	-9.585848e-001	-2.694342e-001
735079500	-9.598406e-001	-2.651623e-001
740078000	-9.610602e-001	-2.609747e-001
745076500	-9.627345e-001	-2.575129e-001
750075000	-9.634686e-001	-2.524866e-001
755073500	-9.647330e-001	-2.484393e-001
760072000	-9.657072e-001	-2.447772e-001
765070500	-9.673028e-001	-2.410038e-001
770069000	-9.684229e-001	-2.365861e-001
775067500	-9.690265e-001	-2.325565e-001
780066000	-9.698991e-001	-2.287372e-001
785064500	-9.712507e-001	-2.249868e-001
790063000	-9.719152e-001	-2.212376e-001
795061500	-9.728390e-001	-2.169103e-001
800060000	-9.737538e-001	-2.130506e-001
805058500	-9.745741e-001	-2.098745e-001
810057000	-9.753109e-001	-2.048666e-001
815055500	-9.760967e-001	-2.016513e-001
820054000	-9.768953e-001	-1.971647e-001
825052500	-9.773208e-001	-1.939302e-001
830051000	-9.786282e-001	-1.896213e-001
835049500	-9.784287e-001	-1.856158e-001
840048000	-9.792933e-001	-1.821226e-001
845046500	-9.800622e-001	-1.782140e-001
850045000	-9.802707e-001	-1.747563e-001
855043500	-9.811557e-001	-1.713602e-001
860042000	-9.815343e-001	-1.669530e-001
865040500	-9.822240e-001	-1.639624e-001
870039000	-9.830216e-001	-1.604899e-001
875037500	-9.835474e-001	-1.569884e-001
880036000	-9.841929e-001	-1.535250e-001
885034500	-9.845910e-001	-1.508443e-001
890033000	-9.856684e-001	-1.472320e-001
895031500	-9.857221e-001	-1.434985e-001
900030000	-9.866699e-001	-1.403150e-001
905028500	-9.873500e-001	-1.374250e-001
910027000	-9.871432e-001	-1.343357e-001
915025500	-9.873192e-001	-1.309635e-001
920024000	-9.878287e-001	-1.275119e-001
925022500	-9.888050e-001	-1.247233e-001
930021000	-9.894921e-001	-1.218129e-001
935019500	-9.895022e-001	-1.180605e-001
940018000	-9.898139e-001	-1.144848e-001
945016500	-9.904701e-001	-1.114695e-001
950015000	-9.906546e-001	-1.088783e-001
955013500	-9.908705e-001	-1.050326e-001
960012000	-9.909491e-001	-1.026424e-001
965010500	-9.914264e-001	-9.920302e-002
970009000	-9.916583e-001	-9.552975e-002
975007500	-9.918393e-001	-9.258119e-002
980006000	-9.921750e-001	-8.916778e-002
985004500	-9.919890e-001	-8.614461e-002
990003000	-9.925563e-001	-8.282927e-002
995001500	-9.930468e-001	-7.955967e-002
1000000000	-9.930474e-001	-7.717518e-002
