!Agilent Technologies,E5071C,MY46520295,B.13.20
!Date: Fri Feb 09 08:22:01 2024
!Data & Calibration Information:
!Freq	S11:SOLT2(ON)
!PortZ  Port1:50+j0
!Above PortZ is port z conversion or system Z0 setting when saving the data.
!When reading, reference impedance value at option line is always used.
# Hz S RI R 50
300000	4.585143e-001	3.952053e-001
5298500	-6.860293e-003	2.795148e-002
10297000	2.110361e-002	2.073294e-002
15295500	2.662441e-002	7.626097e-003
20294000	2.494242e-002	5.123588e-003
25292500	2.503964e-002	4.894847e-003
30291000	2.500948e-002	8.461858e-003
35289500	2.351506e-002	8.383209e-003
40288000	2.417893e-002	8.029398e-003
45286500	2.358709e-002	6.906896e-003
50285000	2.432537e-002	6.836637e-003
55283500	2.560102e-002	6.781357e-003
60282000	2.372706e-002	6.412899e-003
65280500	2.391627e-002	6.202699e-003
70279000	2.475678e-002	8.311989e-003
75277500	2.588995e-002	7.473830e-003
80276000	2.526866e-002	7.488224e-003
85274500	2.475944e-002	7.955096e-003
90273000	2.571621e-002	8.617470e-003
95271500	2.497899e-002	8.387428e-003
100270000	2.553081e-002	8.989400e-003
105268500	2.536731e-002	9.085594e-003
110267000	2.520747e-002	8.922766e-003
115265500	2.506186e-002	8.853617e-003
120264000	2.502648e-002	1.021734e-002
125262500	2.563071e-002	9.721869e-003
130261000	2.507730e-002	1.013924e-002
135259500	2.503453e-002	1.096966e-002
140258000	2.504249e-002	1.084003e-002
145256500	2.532819e-002	1.115999e-002
150255000	2.541597e-002	1.162983e-002
155253500	2.512677e-002	1.170895e-002
160252000	2.524338e-002	1.183666e-002
165250500	2.512119e-002	1.245200e-002
170249000	2.514547e-002	1.271521e-002
175247500	2.520686e-002	1.302423e-002
180246000	2.528526e-002	1.312733e-002
185244500	2.512436e-002	1.353729e-002
190243000	2.496151e-002	1.325785e-002
195241500	2.494383e-002	1.407175e-002
200240000	2.531847e-002	1.467673e-002
205238500	2.499552e-002	1.466253e-002
210237000	2.507431e-002	1.480893e-002
215235500	2.529069e-002	1.508102e-002
220234000	2.539250e-002	1.564469e-002
225232500	2.498153e-002	1.584426e-002
230231000	2.536694e-002	1.625925e-002
235229500	2.527684e-002	1.642486e-002
240228000	2.518276e-002	1.685241e-002
245226500	2.508889e-002	1.697453e-002
250225000	2.520837e-002	1.744478e-002
255223500	2.519987e-002	1.773582e-002
260222000	2.502697e-002	1.811292e-002
265220500	2.498117e-002	1.830498e-002
270219000	2.499219e-002	1.866349e-002
275217500	2.473657e-002	1.871566e-002
280216000	2.468704e-002	1.925467e-002
285214500	2.455787e-002	1.966361e-002
290213000	2.496936e-002	1.974662e-002
295211500	2.484997e-002	2.014981e-002
300210000	2.460765e-002	2.073093e-002
305208500	2.471780e-002	2.110489e-002
310207000	2.504229e-002	2.147782e-002
315205500	2.492497e-002	2.192483e-002
320204000	2.486065e-002	2.217923e-002
325202500	2.467057e-002	2.254468e-002
330201000	2.477056e-002	2.285708e-002
335199500	2.459535e-002	2.332511e-002
340198000	2.471968e-002	2.335679e-002
345196500	2.488127e-002	2.360766e-002
350195000	2.497563e-002	2.398459e-002
355193500	2.480851e-002	2.432192e-002
360192000	2.494827e-002	2.469545e-002
365190500	2.474462e-002	2.487263e-002
370189000	2.460491e-002	2.514756e-002
375187500	2.498256e-002	2.565212e-002
380186000	2.477149e-002	2.577284e-002
385184500	2.460025e-002	2.636193e-002
390183000	2.464335e-002	2.644746e-002
395181500	2.453979e-002	2.682490e-002
400180000	2.497866e-002	2.740037e-002
405178500	2.503453e-002	2.738314e-002
410177000	2.487297e-002	2.770151e-002
415175500	2.475537e-002	2.814665e-002
420174000	2.474692e-002	2.857238e-002
425172500	2.477236e-002	2.896433e-002
430171000	2.467578e-002	2.912601e-002
435169500	2.444462e-002	2.948058e-002
440168000	2.452992e-002	2.960444e-002
445166500	2.450909e-002	3.034401e-002
450165000	2.468713e-002	3.077467e-002
455163500	2.466629e-002	3.077556e-002
460162000	2.459312e-002	3.142535e-002
465160500	2.470124e-002	3.153435e-002
470159000	2.456343e-002	3.187866e-002
475157500	2.450845e-002	3.236176e-002
480156000	2.457415e-002	3.257043e-002
485154500	2.443839e-002	3.277754e-002
490153000	2.473985e-002	3.323756e-002
495151500	2.460765e-002	3.365972e-002
500150000	2.461083e-002	3.386103e-002
505148500	2.463648e-002	3.416086e-002
510147000	2.459247e-002	3.453359e-002
515145500	2.451108e-002	3.453098e-002
520144000	2.451401e-002	3.483071e-002
525142500	2.469750e-002	3.535373e-002
530141000	2.443553e-002	3.557054e-002
535139500	2.453025e-002	3.567419e-002
540138000	2.448716e-002	3.618583e-002
545136500	2.443791e-002	3.648310e-002
550135000	2.433736e-002	3.683917e-002
555133500	2.444850e-002	3.714870e-002
560132000	2.440615e-002	3.744171e-002
565130500	2.448386e-002	3.769997e-002
570129000	2.455521e-002	3.813899e-002
575127500	2.429948e-002	3.871608e-002
580126000	2.441968e-002	3.904404e-002
585124500	2.434930e-002	3.927731e-002
590123000	2.468323e-002	3.955530e-002
595121500	2.441096e-002	3.981935e-002
600120000	2.462392e-002	4.019849e-002
605118500	2.474007e-002	4.052529e-002
610117000	2.452752e-002	4.073275e-002
615115500	2.463515e-002	4.104298e-002
620114000	2.465304e-002	4.146845e-002
625112500	2.448148e-002	4.163912e-002
630111000	2.446025e-002	4.179095e-002
635109500	2.464402e-002	4.223652e-002
640108000	2.436380e-002	4.245667e-002
645106500	2.456986e-002	4.266992e-002
650105000	2.433296e-002	4.300621e-002
655103500	2.448129e-002	4.311880e-002
660102000	2.417448e-002	4.350300e-002
665100500	2.417633e-002	4.377619e-002
670099000	2.408900e-002	4.408804e-002
675097500	2.430811e-002	4.443318e-002
680096000	2.425990e-002	4.459109e-002
685094500	2.443411e-002	4.511454e-002
690093000	2.433021e-002	4.521898e-002
695091500	2.411508e-002	4.567330e-002
700090000	2.428263e-002	4.602705e-002
705088500	2.407912e-002	4.632330e-002
710087000	2.404699e-002	4.662237e-002
715085500	2.436906e-002	4.693268e-002
720084000	2.416325e-002	4.724303e-002
725082500	2.408648e-002	4.763470e-002
730081000	2.422073e-002	4.790473e-002
735079500	2.434482e-002	4.823879e-002
740078000	2.427268e-002	4.830711e-002
745076500	2.404699e-002	4.869104e-002
750075000	2.395247e-002	4.899876e-002
755073500	2.390371e-002	4.937730e-002
760072000	2.404714e-002	4.968245e-002
765070500	2.408752e-002	4.960941e-002
770069000	2.393784e-002	4.998994e-002
775067500	2.403355e-002	5.050677e-002
780066000	2.378600e-002	5.064251e-002
785064500	2.396152e-002	5.114242e-002
790063000	2.398193e-002	5.130219e-002
795061500	2.383210e-002	5.171549e-002
800060000	2.373487e-002	5.189698e-002
805058500	2.381529e-002	5.214675e-002
810057000	2.397188e-002	5.241827e-002
815055500	2.381980e-002	5.264837e-002
820054000	2.381495e-002	5.295056e-002
825052500	2.380753e-002	5.338286e-002
830051000	2.377087e-002	5.355919e-002
835049500	2.369524e-002	5.398552e-002
840048000	2.376983e-002	5.434084e-002
845046500	2.390701e-002	5.461747e-002
850045000	2.379431e-002	5.470218e-002
855043500	2.383420e-002	5.502201e-002
860042000	2.379098e-002	5.531026e-002
865040500	2.377144e-002	5.564229e-002
870039000	2.397168e-002	5.599300e-002
875037500	2.369169e-002	5.605974e-002
880036000	2.362509e-002	5.630723e-002
885034500	2.368298e-002	5.655383e-002
890033000	2.362922e-002	5.689523e-002
895031500	2.363852e-002	5.704760e-002
900030000	2.353331e-002	5.759848e-002
905028500	2.349806e-002	5.756782e-002
910027000	2.370093e-002	5.781920e-002
915025500	2.364147e-002	5.826438e-002
920024000	2.340023e-002	5.842769e-002
925022500	2.342364e-002	5.885019e-002
930021000	2.324425e-002	5.905897e-002
935019500	2.336369e-002	5.930376e-002
940018000	2.327626e-002	5.951902e-002
945016500	2.345264e-002	5.985256e-002
950015000	2.321947e-002	5.996655e-002
955013500	2.314939e-002	6.045452e-002
960012000	2.311309e-002	6.048790e-002
965010500	2.320106e-002	6.087253e-002
970009000	2.338612e-002	6.130528e-002
975007500	2.301078e-002	6.135527e-002
980006000	2.315357e-002	6.180651e-002
985004500	2.335376e-002	6.205229e-002
990003000	2.304115e-002	6.212216e-002
995001500	2.341066e-002	6.250725e-002
1000000000	2.329894e-002	6.279314e-002
