!Agilent Technologies,E5071C,MY46520295,B.13.20
!Date: Fri Feb 09 07:29:20 2024
!Data & Calibration Information:
!Freq	S11:SOLT2(ON)
!PortZ  Port1:50+j0
!Above PortZ is port z conversion or system Z0 setting when saving the data.
!When reading, reference impedance value at option line is always used.
# Hz S RI R 50
300000	1.000069e+000	-4.698444e-003
10297000	9.903002e-001	-1.399084e-001
20294000	9.622289e-001	-2.722773e-001
30291000	9.173818e-001	-3.980898e-001
40288000	8.571844e-001	-5.152937e-001
50285000	7.846726e-001	-6.206428e-001
60282000	7.010869e-001	-7.136050e-001
70279000	6.095143e-001	-7.931346e-001
80276000	5.130532e-001	-8.592124e-001
90273000	4.136470e-001	-9.106340e-001
100270000	3.124083e-001	-9.502255e-001
110267000	2.133317e-001	-9.771216e-001
120264000	1.158144e-001	-9.939724e-001
130261000	2.113392e-002	-1.000805e+000
140258000	-6.861236e-002	-9.973945e-001
150255000	-1.540570e-001	-9.887055e-001
160252000	-2.349829e-001	-9.723762e-001
170249000	-3.102659e-001	-9.505501e-001
180246000	-3.802562e-001	-9.245474e-001
190243000	-4.447906e-001	-8.947335e-001
200240000	-5.045946e-001	-8.615761e-001
210237000	-5.607180e-001	-8.270959e-001
220234000	-6.115227e-001	-7.895988e-001
230231000	-6.582622e-001	-7.510273e-001
240228000	-7.005619e-001	-7.107280e-001
250225000	-7.394971e-001	-6.705101e-001
260222000	-7.746413e-001	-6.294447e-001
270219000	-8.061384e-001	-5.880800e-001
280216000	-8.341769e-001	-5.465255e-001
290213000	-8.596691e-001	-5.054930e-001
300210000	-8.819538e-001	-4.645913e-001
310207000	-9.019383e-001	-4.239495e-001
320204000	-9.190669e-001	-3.836820e-001
330201000	-9.348729e-001	-3.445775e-001
340198000	-9.479783e-001	-3.048131e-001
350195000	-9.592352e-001	-2.664324e-001
360192000	-9.685943e-001	-2.277272e-001
370189000	-9.771553e-001	-1.895618e-001
380186000	-9.830576e-001	-1.518773e-001
390183000	-9.879603e-001	-1.150797e-001
400180000	-9.910259e-001	-7.954590e-002
410177000	-9.931746e-001	-4.420564e-002
420174000	-9.935829e-001	-1.008465e-002
430171000	-9.933733e-001	2.340555e-002
440168000	-9.916810e-001	5.604262e-002
450165000	-9.893329e-001	8.790243e-002
460162000	-9.858210e-001	1.192093e-001
470159000	-9.813431e-001	1.498684e-001
480156000	-9.761714e-001	1.804141e-001
490153000	-9.702537e-001	2.104959e-001
500150000	-9.619907e-001	2.398408e-001
510147000	-9.540632e-001	2.687298e-001
520144000	-9.457647e-001	2.969343e-001
530141000	-9.359734e-001	3.245349e-001
540138000	-9.261254e-001	3.509568e-001
550135000	-9.150345e-001	3.771398e-001
560132000	-9.050236e-001	4.021558e-001
570129000	-8.930767e-001	4.263840e-001
580126000	-8.813701e-001	4.499197e-001
590123000	-8.695860e-001	4.731442e-001
600120000	-8.563025e-001	4.955095e-001
610117000	-8.430814e-001	5.180338e-001
620114000	-8.284015e-001	5.397697e-001
630111000	-8.138575e-001	5.612474e-001
640108000	-7.984943e-001	5.823908e-001
650105000	-7.828726e-001	6.022680e-001
660102000	-7.663121e-001	6.220165e-001
670099000	-7.498887e-001	6.409839e-001
680096000	-7.334349e-001	6.589136e-001
690093000	-7.172478e-001	6.770058e-001
700090000	-7.005581e-001	6.942033e-001
710087000	-6.840726e-001	7.105459e-001
720084000	-6.671435e-001	7.266092e-001
730081000	-6.494256e-001	7.418409e-001
740078000	-6.321325e-001	7.572433e-001
750075000	-6.137698e-001	7.720133e-001
760072000	-5.952497e-001	7.862489e-001
770069000	-5.760567e-001	7.995402e-001
780066000	-5.561567e-001	8.127836e-001
790063000	-5.363718e-001	8.250723e-001
800060000	-5.167131e-001	8.373107e-001
810057000	-4.966734e-001	8.489063e-001
820054000	-4.766685e-001	8.597199e-001
830051000	-4.571779e-001	8.701886e-001
840048000	-4.373787e-001	8.804789e-001
850045000	-4.182237e-001	8.897281e-001
860042000	-3.990468e-001	8.986473e-001
870039000	-3.793007e-001	9.072276e-001
880036000	-3.589620e-001	9.152013e-001
890033000	-3.384800e-001	9.222553e-001
900030000	-3.177653e-001	9.291249e-001
910027000	-2.964984e-001	9.351637e-001
920024000	-2.754190e-001	9.412973e-001
930021000	-2.541119e-001	9.470284e-001
940018000	-2.328868e-001	9.520226e-001
950015000	-2.120206e-001	9.563091e-001
960012000	-1.912977e-001	9.612151e-001
970009000	-1.707699e-001	9.646153e-001
980006000	-1.504114e-001	9.684782e-001
990003000	-1.300838e-001	9.721356e-001
1000000000	-1.101685e-001	9.745263e-001
1009997000	-8.949914e-002	9.768624e-001
1019994000	-6.885716e-002	9.783865e-001
1029991000	-4.740432e-002	9.791176e-001
1039988000	-2.675888e-002	9.790592e-001
1049985000	-5.352217e-003	9.788266e-001
1059982000	1.594413e-002	9.780291e-001
1069979000	3.694539e-002	9.769265e-001
1079976000	5.748727e-002	9.750182e-001
1089973000	7.842327e-002	9.734754e-001
1099970000	9.888382e-002	9.719853e-001
1109967000	1.184647e-001	9.695093e-001
1119964000	1.380695e-001	9.667905e-001
1129961000	1.575212e-001	9.642383e-001
1139958000	1.770473e-001	9.615646e-001
1149955000	1.963263e-001	9.575378e-001
1159952000	2.163300e-001	9.530705e-001
1169949000	2.356918e-001	9.477924e-001
1179946000	2.551974e-001	9.420392e-001
1189943000	2.749895e-001	9.359968e-001
1199940000	2.944084e-001	9.296610e-001
1209937000	3.136876e-001	9.221963e-001
1219934000	3.320364e-001	9.151267e-001
1229931000	3.507408e-001	9.087411e-001
1239928000	3.694432e-001	9.011370e-001
1249925000	3.875243e-001	8.935282e-001
1259922000	4.057711e-001	8.864782e-001
1269919000	4.231206e-001	8.780728e-001
1279916000	4.410599e-001	8.695882e-001
1289913000	4.584716e-001	8.610792e-001
1299910000	4.753418e-001	8.510292e-001
1309907000	4.924780e-001	8.410703e-001
1319904000	5.096316e-001	8.297437e-001
1329901000	5.259213e-001	8.180353e-001
1339898000	5.423724e-001	8.065030e-001
1349895000	5.587419e-001	7.946619e-001
1359892000	5.748908e-001	7.823417e-001
1369889000	5.889591e-001	7.710525e-001
1379886000	6.046267e-001	7.592508e-001
1389883000	6.197670e-001	7.486661e-001
1399880000	6.345215e-001	7.362149e-001
1409877000	6.492827e-001	7.231824e-001
1419874000	6.640141e-001	7.114360e-001
1429871000	6.777228e-001	6.978169e-001
1439868000	6.914031e-001	6.839787e-001
1449865000	7.045485e-001	6.694331e-001
1459862000	7.166896e-001	6.547015e-001
1469859000	7.288918e-001	6.391291e-001
1479856000	7.417061e-001	6.239538e-001
1489853000	7.540655e-001	6.088943e-001
1499850000	7.661666e-001	5.937199e-001
1509847000	7.778009e-001	5.785860e-001
1519844000	7.899444e-001	5.639114e-001
1529841000	8.011702e-001	5.485286e-001
1539838000	8.118911e-001	5.330294e-001
1549835000	8.230870e-001	5.172365e-001
1559832000	8.327453e-001	5.009693e-001
1569829000	8.427212e-001	4.842737e-001
1579826000	8.517442e-001	4.671483e-001
1589823000	8.603270e-001	4.500761e-001
1599820000	8.687294e-001	4.327118e-001
1609817000	8.759695e-001	4.146483e-001
1619814000	8.837817e-001	3.968037e-001
1629811000	8.916399e-001	3.794535e-001
1639808000	8.985665e-001	3.621908e-001
1649805000	9.061314e-001	3.445969e-001
1659802000	9.128486e-001	3.269363e-001
1669799000	9.197457e-001	3.088600e-001
1679796000	9.267928e-001	2.910303e-001
1689793000	9.322685e-001	2.735712e-001
1699790000	9.379717e-001	2.553367e-001
1709787000	9.428890e-001	2.363784e-001
1719784000	9.468924e-001	2.177185e-001
1729781000	9.504381e-001	1.990893e-001
1739778000	9.539374e-001	1.793826e-001
1749775000	9.564807e-001	1.608026e-001
1759772000	9.591096e-001	1.423597e-001
1769769000	9.619090e-001	1.237374e-001
1779766000	9.640301e-001	1.049832e-001
1789763000	9.668490e-001	8.657895e-002
1799760000	9.692336e-001	6.770077e-002
1809757000	9.714315e-001	4.935548e-002
1819754000	9.725442e-001	3.051527e-002
1829751000	9.744004e-001	1.165689e-002
1839748000	9.737544e-001	-7.135040e-003
1849745000	9.733179e-001	-2.678671e-002
1859742000	9.729773e-001	-4.512028e-002
1869739000	9.714437e-001	-6.393038e-002
1879736000	9.697894e-001	-8.271002e-002
1889733000	9.681140e-001	-1.015542e-001
1899730000	9.661816e-001	-1.198249e-001
1909727000	9.637293e-001	-1.390848e-001
1919724000	9.615423e-001	-1.576426e-001
1929721000	9.596694e-001	-1.761048e-001
1939718000	9.571494e-001	-1.947661e-001
1949715000	9.542014e-001	-2.134072e-001
1959712000	9.510020e-001	-2.316310e-001
1969709000	9.467725e-001	-2.503517e-001
1979706000	9.425752e-001	-2.683752e-001
1989703000	9.377634e-001	-2.867591e-001
1999700000	9.323955e-001	-3.047347e-001
