!Agilent Technologies,E5071C,MY46520295,B.13.20
!Date: Fri Feb 09 07:27:15 2024
!Data & Calibration Information:
!Freq	S22:SOLT2(ON)
!PortZ  Port2:50+j0
!Above PortZ is port z conversion or system Z0 setting when saving the data.
!When reading, reference impedance value at option line is always used.
# Hz S RI R 50
300000	9.998354e-001	7.992623e-004
10297000	9.993475e-001	-6.795110e-004
20294000	9.995116e-001	-7.541932e-004
30291000	9.999235e-001	-1.872236e-003
40288000	9.997510e-001	-2.181976e-003
50285000	9.997511e-001	-2.788469e-003
60282000	9.995889e-001	-3.327343e-003
70279000	9.998165e-001	-4.079032e-003
80276000	9.998293e-001	-4.404657e-003
90273000	9.994736e-001	-4.976069e-003
100270000	9.996688e-001	-5.410269e-003
110267000	9.998923e-001	-5.826195e-003
120264000	9.999655e-001	-6.206918e-003
130261000	1.000024e+000	-6.806684e-003
140258000	1.000041e+000	-7.243362e-003
150255000	9.996624e-001	-8.043105e-003
160252000	9.996133e-001	-8.477317e-003
170249000	9.995998e-001	-9.018812e-003
180246000	9.995919e-001	-9.905010e-003
190243000	9.994169e-001	-1.070080e-002
200240000	9.995270e-001	-1.136661e-002
210237000	9.994097e-001	-1.165776e-002
220234000	9.997880e-001	-1.191183e-002
230231000	9.994878e-001	-1.226920e-002
240228000	9.990905e-001	-1.291395e-002
250225000	9.996524e-001	-1.334303e-002
260222000	9.996411e-001	-1.354839e-002
270219000	9.995277e-001	-1.383345e-002
280216000	9.994393e-001	-1.475084e-002
290213000	9.993951e-001	-1.494744e-002
300210000	9.988796e-001	-1.567682e-002
310207000	9.990099e-001	-1.659936e-002
320204000	9.993026e-001	-1.721789e-002
330201000	9.991508e-001	-1.801024e-002
340198000	9.987201e-001	-1.824369e-002
350195000	9.989951e-001	-1.889418e-002
360192000	9.987912e-001	-1.913452e-002
370189000	9.990587e-001	-1.955271e-002
380186000	9.988903e-001	-1.997272e-002
390183000	9.990441e-001	-2.048382e-002
400180000	9.989908e-001	-2.048013e-002
410177000	9.989515e-001	-2.132500e-002
420174000	9.989693e-001	-2.173432e-002
430171000	9.985577e-001	-2.230497e-002
440168000	9.987641e-001	-2.288173e-002
450165000	9.986883e-001	-2.373174e-002
460162000	9.985358e-001	-2.427724e-002
470159000	9.983551e-001	-2.496911e-002
480156000	9.984613e-001	-2.559854e-002
490153000	9.984371e-001	-2.581433e-002
500150000	9.982372e-001	-2.655264e-002
510147000	9.985312e-001	-2.681258e-002
520144000	9.985825e-001	-2.703301e-002
530141000	9.983259e-001	-2.736665e-002
540138000	9.981934e-001	-2.757337e-002
550135000	9.978750e-001	-2.815895e-002
560132000	9.980377e-001	-2.872747e-002
570129000	9.976429e-001	-2.926388e-002
580126000	9.976200e-001	-3.024640e-002
590123000	9.979525e-001	-3.085318e-002
600120000	9.975096e-001	-3.196141e-002
610117000	9.975903e-001	-3.252904e-002
620114000	9.976260e-001	-3.284373e-002
630111000	9.973507e-001	-3.319623e-002
640108000	9.974300e-001	-3.371395e-002
650105000	9.974366e-001	-3.360185e-002
660102000	9.974016e-001	-3.424893e-002
670099000	9.971374e-001	-3.425888e-002
680096000	9.976549e-001	-3.445929e-002
690093000	9.973761e-001	-3.508377e-002
700090000	9.973511e-001	-3.549718e-002
710087000	9.972202e-001	-3.639320e-002
720084000	9.970544e-001	-3.736841e-002
730081000	9.967757e-001	-3.772868e-002
740078000	9.963444e-001	-3.867355e-002
750075000	9.967136e-001	-3.961663e-002
760072000	9.962739e-001	-3.992327e-002
770069000	9.965954e-001	-4.013693e-002
780066000	9.963109e-001	-4.044665e-002
790063000	9.967827e-001	-4.031082e-002
800060000	9.964769e-001	-4.062535e-002
810057000	9.968025e-001	-4.103051e-002
820054000	9.967095e-001	-4.137664e-002
830051000	9.966027e-001	-4.199928e-002
840048000	9.965338e-001	-4.246477e-002
850045000	9.964644e-001	-4.337023e-002
860042000	9.957381e-001	-4.399632e-002
870039000	9.960491e-001	-4.482800e-002
880036000	9.953521e-001	-4.588333e-002
890033000	9.951048e-001	-4.658343e-002
900030000	9.953921e-001	-4.719822e-002
910027000	9.956472e-001	-4.720184e-002
920024000	9.954922e-001	-4.706718e-002
930021000	9.958394e-001	-4.743942e-002
940018000	9.958243e-001	-4.760553e-002
950015000	9.956945e-001	-4.807071e-002
960012000	9.956528e-001	-4.844639e-002
970009000	9.957636e-001	-4.874185e-002
980006000	9.955406e-001	-4.912735e-002
990003000	9.951934e-001	-5.043780e-002
1000000000	9.949628e-001	-5.104944e-002
1009997000	9.945742e-001	-5.214793e-002
1019994000	9.945154e-001	-5.299241e-002
1029991000	9.941672e-001	-5.311762e-002
1039988000	9.945537e-001	-5.370525e-002
1049985000	9.941679e-001	-5.402279e-002
1059982000	9.945906e-001	-5.381142e-002
1069979000	9.944773e-001	-5.418620e-002
1079976000	9.945402e-001	-5.424681e-002
1089973000	9.947573e-001	-5.401715e-002
1099970000	9.946752e-001	-5.499441e-002
1109967000	9.947789e-001	-5.523020e-002
1119964000	9.942766e-001	-5.628545e-002
1129961000	9.939564e-001	-5.684007e-002
1139958000	9.937033e-001	-5.741912e-002
1149955000	9.933683e-001	-5.861582e-002
1159952000	9.934004e-001	-5.930852e-002
1169949000	9.932016e-001	-5.997306e-002
1179946000	9.940202e-001	-6.018405e-002
1189943000	9.935549e-001	-6.032744e-002
1199940000	9.933110e-001	-6.021099e-002
1209937000	9.938795e-001	-6.004873e-002
1219934000	9.935120e-001	-6.042212e-002
1229931000	9.937058e-001	-6.036010e-002
1239928000	9.936683e-001	-6.121942e-002
1249925000	9.936845e-001	-6.181921e-002
1259922000	9.930177e-001	-6.244137e-002
1269919000	9.927141e-001	-6.371271e-002
1279916000	9.922757e-001	-6.443406e-002
1289913000	9.922944e-001	-6.508400e-002
1299910000	9.921932e-001	-6.617828e-002
1309907000	9.921826e-001	-6.622774e-002
1319904000	9.922784e-001	-6.694449e-002
1329901000	9.924790e-001	-6.667543e-002
1339898000	9.925085e-001	-6.672940e-002
1349895000	9.927168e-001	-6.649710e-002
1359892000	9.929342e-001	-6.657846e-002
1369889000	9.925631e-001	-6.714548e-002
1379886000	9.926001e-001	-6.739175e-002
1389883000	9.921598e-001	-6.829347e-002
1399880000	9.918910e-001	-6.951943e-002
1409877000	9.917961e-001	-7.036114e-002
1419874000	9.912627e-001	-7.113069e-002
1429871000	9.908506e-001	-7.180381e-002
1439868000	9.907136e-001	-7.204671e-002
1449865000	9.910372e-001	-7.272850e-002
1459862000	9.910184e-001	-7.271310e-002
1469859000	9.914409e-001	-7.257559e-002
1479856000	9.915129e-001	-7.276428e-002
1489853000	9.921220e-001	-7.261577e-002
1499850000	9.921833e-001	-7.251054e-002
1509847000	9.920922e-001	-7.285370e-002
1519844000	9.918496e-001	-7.368155e-002
1529841000	9.914754e-001	-7.442201e-002
1539838000	9.911384e-001	-7.547515e-002
1549835000	9.908781e-001	-7.597548e-002
1559832000	9.904989e-001	-7.682267e-002
1569829000	9.903581e-001	-7.772609e-002
1579826000	9.903221e-001	-7.801029e-002
1589823000	9.901713e-001	-7.827882e-002
1599820000	9.905629e-001	-7.814059e-002
1609817000	9.908132e-001	-7.857232e-002
1619814000	9.912206e-001	-7.826415e-002
1629811000	9.910505e-001	-7.821753e-002
1639808000	9.918278e-001	-7.841319e-002
1649805000	9.914462e-001	-7.872608e-002
1659802000	9.914918e-001	-7.936692e-002
1669799000	9.912322e-001	-7.981846e-002
1679796000	9.908679e-001	-8.098689e-002
1689793000	9.904160e-001	-8.221062e-002
1699790000	9.904119e-001	-8.308292e-002
1709787000	9.899311e-001	-8.343803e-002
1719784000	9.902294e-001	-8.396150e-002
1729781000	9.903929e-001	-8.415012e-002
1739778000	9.908451e-001	-8.400312e-002
1749775000	9.910361e-001	-8.411714e-002
1759772000	9.914232e-001	-8.353866e-002
1769769000	9.919039e-001	-8.363344e-002
1779766000	9.925082e-001	-8.299286e-002
1789763000	9.921351e-001	-8.391429e-002
1799760000	9.916396e-001	-8.449267e-002
1809757000	9.916417e-001	-8.537064e-002
1819754000	9.915857e-001	-8.618107e-002
1829751000	9.908661e-001	-8.787472e-002
1839748000	9.908593e-001	-8.803091e-002
1849745000	9.910909e-001	-8.835372e-002
1859742000	9.910607e-001	-8.914287e-002
1869739000	9.913937e-001	-8.944637e-002
1879736000	9.925636e-001	-8.926024e-002
1889733000	9.926873e-001	-8.860270e-002
1899730000	9.928150e-001	-8.835562e-002
1909727000	9.935149e-001	-8.862918e-002
1919724000	9.935640e-001	-8.868189e-002
1929721000	9.936427e-001	-8.887380e-002
1939718000	9.937544e-001	-8.998999e-002
1949715000	9.931679e-001	-9.043516e-002
1959712000	9.929376e-001	-9.192833e-002
1969709000	9.927191e-001	-9.300768e-002
1979706000	9.928804e-001	-9.392390e-002
1989703000	9.931856e-001	-9.433093e-002
1999700000	9.943118e-001	-9.449344e-002
