!Agilent Technologies,E5071C,MY46520295,B.13.20
!Date: Fri Feb 09 07:24:52 2024
!Data & Calibration Information:
!Freq	S11:SOLT2(ON)
!PortZ  Port1:50+j0
!Above PortZ is port z conversion or system Z0 setting when saving the data.
!When reading, reference impedance value at option line is always used.
# Hz S RI R 50
300000	-9.975998e-001	1.299851e-003
10297000	-9.971827e-001	2.241449e-002
20294000	-9.962502e-001	4.330010e-002
30291000	-9.945317e-001	6.403203e-002
40288000	-9.928266e-001	8.453677e-002
50285000	-9.903619e-001	1.045597e-001
60282000	-9.874330e-001	1.249734e-001
70279000	-9.846935e-001	1.451866e-001
80276000	-9.815313e-001	1.651982e-001
90273000	-9.771152e-001	1.853502e-001
100270000	-9.730009e-001	2.051462e-001
110267000	-9.676701e-001	2.253996e-001
120264000	-9.628957e-001	2.454550e-001
130261000	-9.574916e-001	2.651153e-001
140258000	-9.515880e-001	2.840978e-001
150255000	-9.452627e-001	3.037074e-001
160252000	-9.384127e-001	3.228663e-001
170249000	-9.314537e-001	3.412794e-001
180246000	-9.241438e-001	3.600902e-001
190243000	-9.168540e-001	3.791279e-001
200240000	-9.086028e-001	3.971588e-001
210237000	-9.001297e-001	4.157063e-001
220234000	-8.908210e-001	4.338047e-001
230231000	-8.813829e-001	4.520979e-001
240228000	-8.715646e-001	4.693757e-001
250225000	-8.613696e-001	4.877846e-001
260222000	-8.513623e-001	5.053840e-001
270219000	-8.401595e-001	5.219247e-001
280216000	-8.294130e-001	5.387553e-001
290213000	-8.182961e-001	5.552730e-001
300210000	-8.064143e-001	5.715075e-001
310207000	-7.943953e-001	5.876955e-001
320204000	-7.826720e-001	6.032178e-001
330201000	-7.703101e-001	6.190260e-001
340198000	-7.572078e-001	6.340769e-001
350195000	-7.439440e-001	6.494918e-001
360192000	-7.301348e-001	6.640066e-001
370189000	-7.162438e-001	6.787981e-001
380186000	-7.018914e-001	6.931681e-001
390183000	-6.867522e-001	7.070611e-001
400180000	-6.720932e-001	7.208395e-001
410177000	-6.569575e-001	7.338015e-001
420174000	-6.419622e-001	7.468915e-001
430171000	-6.267094e-001	7.598648e-001
440168000	-6.107999e-001	7.722026e-001
450165000	-5.958382e-001	7.839435e-001
460162000	-5.798953e-001	7.957695e-001
470159000	-5.635072e-001	8.070222e-001
480156000	-5.468997e-001	8.181856e-001
490153000	-5.302015e-001	8.289156e-001
500150000	-5.126048e-001	8.390789e-001
510147000	-4.947373e-001	8.493060e-001
520144000	-4.768638e-001	8.588359e-001
530141000	-4.588040e-001	8.680155e-001
540138000	-4.407386e-001	8.761555e-001
550135000	-4.227026e-001	8.852669e-001
560132000	-4.049422e-001	8.940673e-001
570129000	-3.869250e-001	9.013919e-001
580126000	-3.685985e-001	9.090610e-001
590123000	-3.505234e-001	9.163195e-001
600120000	-3.322328e-001	9.226441e-001
610117000	-3.134275e-001	9.296322e-001
620114000	-2.938146e-001	9.355129e-001
630111000	-2.749743e-001	9.410666e-001
640108000	-2.552261e-001	9.457705e-001
650105000	-2.359008e-001	9.504442e-001
660102000	-2.160842e-001	9.544397e-001
670099000	-1.962895e-001	9.577186e-001
680096000	-1.763455e-001	9.617247e-001
690093000	-1.569337e-001	9.647613e-001
700090000	-1.371534e-001	9.676906e-001
710087000	-1.181679e-001	9.704904e-001
720084000	-9.897752e-002	9.729672e-001
730081000	-7.923956e-002	9.744600e-001
740078000	-5.988172e-002	9.763943e-001
750075000	-4.022020e-002	9.775463e-001
760072000	-1.989439e-002	9.780304e-001
770069000	3.700179e-007	9.776548e-001
780066000	2.027806e-002	9.771575e-001
790063000	4.015867e-002	9.753018e-001
800060000	6.055843e-002	9.743631e-001
810057000	8.043214e-002	9.723363e-001
820054000	1.007045e-001	9.698142e-001
830051000	1.202822e-001	9.676520e-001
840048000	1.402391e-001	9.650780e-001
850045000	1.592673e-001	9.625917e-001
860042000	1.780268e-001	9.599028e-001
870039000	1.974079e-001	9.562816e-001
880036000	2.165342e-001	9.518920e-001
890033000	2.359180e-001	9.468534e-001
900030000	2.549278e-001	9.415518e-001
910027000	2.740493e-001	9.353734e-001
920024000	2.936695e-001	9.289700e-001
930021000	3.127805e-001	9.226015e-001
940018000	3.315424e-001	9.155024e-001
950015000	3.496817e-001	9.081646e-001
960012000	3.682894e-001	9.008107e-001
970009000	3.857561e-001	8.930113e-001
980006000	4.041647e-001	8.853816e-001
990003000	4.219158e-001	8.774849e-001
1000000000	4.393273e-001	8.695182e-001
1009997000	4.574181e-001	8.604968e-001
1019994000	4.745225e-001	8.513580e-001
1029991000	4.919869e-001	8.407686e-001
1039988000	5.084087e-001	8.302369e-001
1049985000	5.252497e-001	8.190360e-001
1059982000	5.418744e-001	8.074367e-001
1069979000	5.580588e-001	7.959737e-001
1079976000	5.738735e-001	7.841339e-001
1089973000	5.900627e-001	7.718868e-001
1099970000	6.060307e-001	7.599826e-001
1109967000	6.207311e-001	7.477499e-001
1119964000	6.357424e-001	7.349807e-001
1129961000	6.507817e-001	7.226271e-001
1139958000	6.656465e-001	7.095864e-001
1149955000	6.801386e-001	6.959979e-001
1159952000	6.941794e-001	6.819966e-001
1169949000	7.076633e-001	6.674297e-001
1179946000	7.204738e-001	6.523661e-001
1189943000	7.335297e-001	6.372088e-001
1199940000	7.460594e-001	6.218998e-001
1209937000	7.579720e-001	6.059806e-001
1219934000	7.700079e-001	5.896922e-001
1229931000	7.820762e-001	5.749274e-001
1239928000	7.940833e-001	5.585772e-001
1249925000	8.050257e-001	5.422239e-001
1259922000	8.165982e-001	5.262457e-001
1269919000	8.270879e-001	5.096588e-001
1279916000	8.378212e-001	4.930206e-001
1289913000	8.479013e-001	4.760020e-001
1299910000	8.574372e-001	4.583691e-001
1309907000	8.662546e-001	4.408976e-001
1319904000	8.746066e-001	4.226692e-001
1329901000	8.824076e-001	4.044729e-001
1339898000	8.906064e-001	3.860397e-001
1349895000	8.983795e-001	3.674143e-001
1359892000	9.053548e-001	3.484664e-001
1369889000	9.117900e-001	3.305738e-001
1379886000	9.185700e-001	3.118507e-001
1389883000	9.257076e-001	2.936129e-001
1399880000	9.317865e-001	2.746897e-001
1409877000	9.372165e-001	2.552775e-001
1419874000	9.433882e-001	2.365159e-001
1429871000	9.478755e-001	2.174776e-001
1439868000	9.521451e-001	1.980389e-001
1449865000	9.560219e-001	1.784281e-001
1459862000	9.585269e-001	1.590363e-001
1469859000	9.609019e-001	1.390247e-001
1479856000	9.633477e-001	1.194201e-001
1489853000	9.655086e-001	9.957329e-002
1499850000	9.674576e-001	7.917957e-002
1509847000	9.690764e-001	5.906336e-002
1519844000	9.708019e-001	3.949777e-002
1529841000	9.709085e-001	1.967288e-002
1539838000	9.709128e-001	1.340768e-003
1549835000	9.725192e-001	-1.806671e-002
1559832000	9.723613e-001	-3.798673e-002
1569829000	9.721026e-001	-5.841571e-002
1579826000	9.703642e-001	-7.861244e-002
1589823000	9.687046e-001	-9.796908e-002
1599820000	9.668087e-001	-1.179073e-001
1609817000	9.634174e-001	-1.379426e-001
1619814000	9.604322e-001	-1.575368e-001
1629811000	9.572375e-001	-1.771111e-001
1639808000	9.536611e-001	-1.967889e-001
1649805000	9.502230e-001	-2.162402e-001
1659802000	9.455177e-001	-2.359508e-001
1669799000	9.411798e-001	-2.553412e-001
1679796000	9.363278e-001	-2.748551e-001
1689793000	9.309350e-001	-2.934794e-001
1699790000	9.254175e-001	-3.129441e-001
1709787000	9.186882e-001	-3.317651e-001
1719784000	9.122229e-001	-3.502694e-001
1729781000	9.044835e-001	-3.690939e-001
1739778000	8.970247e-001	-3.877151e-001
1749775000	8.891748e-001	-4.058022e-001
1759772000	8.809764e-001	-4.238939e-001
1769769000	8.724546e-001	-4.419276e-001
1779766000	8.634803e-001	-4.596952e-001
1789763000	8.548251e-001	-4.776216e-001
1799760000	8.452983e-001	-4.954695e-001
1809757000	8.356041e-001	-5.130578e-001
1819754000	8.254260e-001	-5.298515e-001
1829751000	8.150991e-001	-5.476950e-001
1839748000	8.037166e-001	-5.641427e-001
1849745000	7.923941e-001	-5.806906e-001
1859742000	7.810782e-001	-5.968529e-001
1869739000	7.689926e-001	-6.131300e-001
1879736000	7.570243e-001	-6.291451e-001
1889733000	7.443103e-001	-6.447183e-001
1899730000	7.314667e-001	-6.595117e-001
1909727000	7.183450e-001	-6.748494e-001
1919724000	7.051404e-001	-6.900694e-001
1929721000	6.913072e-001	-7.049791e-001
1939718000	6.776594e-001	-7.194399e-001
1949715000	6.631602e-001	-7.337160e-001
1959712000	6.486868e-001	-7.478042e-001
1969709000	6.336848e-001	-7.614428e-001
1979706000	6.188498e-001	-7.745961e-001
1989703000	6.038493e-001	-7.882050e-001
1999700000	5.879749e-001	-8.010217e-001
