!Agilent Technologies,E5071C,MY46520295,B.13.20
!Date: Fri Feb 09 07:31:47 2024
!Data & Calibration Information:
!Freq	S11:SOLT2(ON)
!PortZ  Port1:50+j0
!Above PortZ is port z conversion or system Z0 setting when saving the data.
!When reading, reference impedance value at option line is always used.
# Hz S RI R 50
300000	-9.967088e-001	3.190386e-003
10297000	-9.977609e-001	2.306302e-002
20294000	-9.956058e-001	4.484885e-002
30291000	-9.940649e-001	6.609318e-002
40288000	-9.918254e-001	8.692933e-002
50285000	-9.891556e-001	1.078672e-001
60282000	-9.859519e-001	1.285350e-001
70279000	-9.828795e-001	1.492413e-001
80276000	-9.791148e-001	1.698234e-001
90273000	-9.744515e-001	1.902230e-001
100270000	-9.701943e-001	2.103231e-001
110267000	-9.645352e-001	2.308717e-001
120264000	-9.592725e-001	2.508466e-001
130261000	-9.532357e-001	2.707494e-001
140258000	-9.473507e-001	2.902577e-001
150255000	-9.402544e-001	3.098298e-001
160252000	-9.335414e-001	3.290844e-001
170249000	-9.264755e-001	3.477155e-001
180246000	-9.189249e-001	3.667802e-001
190243000	-9.105238e-001	3.854128e-001
200240000	-9.022925e-001	4.038264e-001
210237000	-8.935081e-001	4.223307e-001
220234000	-8.841467e-001	4.407494e-001
230231000	-8.742630e-001	4.588503e-001
240228000	-8.644130e-001	4.764088e-001
250225000	-8.540082e-001	4.947016e-001
260222000	-8.436736e-001	5.120613e-001
270219000	-8.321493e-001	5.286569e-001
280216000	-8.212117e-001	5.454188e-001
290213000	-8.098250e-001	5.620077e-001
300210000	-7.976968e-001	5.780829e-001
310207000	-7.855487e-001	5.943066e-001
320204000	-7.737215e-001	6.097872e-001
330201000	-7.612345e-001	6.248070e-001
340198000	-7.478553e-001	6.400275e-001
350195000	-7.344362e-001	6.552868e-001
360192000	-7.205944e-001	6.695213e-001
370189000	-7.061135e-001	6.845031e-001
380186000	-6.917440e-001	6.986032e-001
390183000	-6.765040e-001	7.122771e-001
400180000	-6.619041e-001	7.257038e-001
410177000	-6.467519e-001	7.388550e-001
420174000	-6.319328e-001	7.517936e-001
430171000	-6.163057e-001	7.640660e-001
440168000	-6.006547e-001	7.763399e-001
450165000	-5.853292e-001	7.878801e-001
460162000	-5.697907e-001	7.993531e-001
470159000	-5.534161e-001	8.105044e-001
480156000	-5.369766e-001	8.211258e-001
490153000	-5.198358e-001	8.315844e-001
500150000	-5.026611e-001	8.414357e-001
510147000	-4.852204e-001	8.513939e-001
520144000	-4.675767e-001	8.606416e-001
530141000	-4.496697e-001	8.695463e-001
540138000	-4.322103e-001	8.776893e-001
550135000	-4.138142e-001	8.861750e-001
560132000	-3.967312e-001	8.943833e-001
570129000	-3.789654e-001	9.022682e-001
580126000	-3.610341e-001	9.090177e-001
590123000	-3.434440e-001	9.161299e-001
600120000	-3.256098e-001	9.223150e-001
610117000	-3.074223e-001	9.289762e-001
620114000	-2.882462e-001	9.343269e-001
630111000	-2.697173e-001	9.396226e-001
640108000	-2.504381e-001	9.441802e-001
650105000	-2.316193e-001	9.490061e-001
660102000	-2.122364e-001	9.527864e-001
670099000	-1.931496e-001	9.559934e-001
680096000	-1.740611e-001	9.597045e-001
690093000	-1.550589e-001	9.625675e-001
700090000	-1.362038e-001	9.657398e-001
710087000	-1.177086e-001	9.682963e-001
720084000	-9.974934e-002	9.705586e-001
730081000	-8.062745e-002	9.718536e-001
740078000	-6.218738e-002	9.737455e-001
750075000	-4.305228e-002	9.751735e-001
760072000	-2.413419e-002	9.756826e-001
770069000	-4.970790e-003	9.754705e-001
780066000	1.426899e-002	9.750676e-001
790063000	3.358207e-002	9.734496e-001
800060000	5.260715e-002	9.725161e-001
810057000	7.171037e-002	9.710214e-001
820054000	9.084998e-002	9.688397e-001
830051000	1.095985e-001	9.672066e-001
840048000	1.283826e-001	9.650607e-001
850045000	1.464907e-001	9.629969e-001
860042000	1.639001e-001	9.605622e-001
870039000	1.822433e-001	9.575797e-001
880036000	2.004164e-001	9.538108e-001
890033000	2.189943e-001	9.495553e-001
900030000	2.366910e-001	9.449235e-001
910027000	2.548809e-001	9.393521e-001
920024000	2.731202e-001	9.335682e-001
930021000	2.914469e-001	9.281572e-001
940018000	3.089798e-001	9.220544e-001
950015000	3.258034e-001	9.158030e-001
960012000	3.435927e-001	9.093700e-001
970009000	3.602654e-001	9.029706e-001
980006000	3.774091e-001	8.961944e-001
990003000	3.937598e-001	8.896887e-001
1000000000	4.103834e-001	8.826672e-001
1009997000	4.269256e-001	8.749425e-001
1019994000	4.429333e-001	8.671243e-001
1029991000	4.591462e-001	8.579705e-001
1039988000	4.747140e-001	8.488534e-001
1049985000	4.907900e-001	8.395325e-001
1059982000	5.064216e-001	8.292943e-001
1069979000	5.218675e-001	8.194527e-001
1079976000	5.366206e-001	8.090393e-001
1089973000	5.518511e-001	7.990724e-001
1099970000	5.671248e-001	7.889058e-001
1109967000	5.811711e-001	7.785362e-001
1119964000	5.956691e-001	7.677562e-001
1129961000	6.097805e-001	7.572143e-001
1139958000	6.237579e-001	7.466174e-001
1149955000	6.375513e-001	7.352029e-001
1159952000	6.512098e-001	7.232629e-001
1169949000	6.641152e-001	7.111290e-001
1179946000	6.768295e-001	6.981348e-001
1189943000	6.893883e-001	6.849226e-001
1199940000	7.019705e-001	6.719758e-001
1209937000	7.133550e-001	6.579923e-001
1219934000	7.248634e-001	6.447802e-001
1229931000	7.370160e-001	6.321598e-001
1239928000	7.486881e-001	6.181933e-001
1249925000	7.595654e-001	6.044787e-001
1259922000	7.710309e-001	5.913305e-001
1269919000	7.819820e-001	5.770019e-001
1279916000	7.922545e-001	5.632710e-001
1289913000	8.027549e-001	5.491800e-001
1299910000	8.123634e-001	5.348358e-001
1309907000	8.214535e-001	5.199798e-001
1319904000	8.306094e-001	5.045092e-001
1329901000	8.392238e-001	4.892338e-001
1339898000	8.476602e-001	4.736547e-001
1349895000	8.560148e-001	4.580805e-001
1359892000	8.642788e-001	4.417535e-001
1369889000	8.718526e-001	4.271766e-001
1379886000	8.793387e-001	4.111631e-001
1389883000	8.871397e-001	3.961413e-001
1399880000	8.946187e-001	3.801413e-001
1409877000	9.011467e-001	3.639131e-001
1419874000	9.085901e-001	3.483201e-001
1429871000	9.147162e-001	3.321841e-001
1439868000	9.203123e-001	3.163968e-001
1449865000	9.255074e-001	2.993991e-001
1459862000	9.298068e-001	2.830330e-001
1469859000	9.338375e-001	2.659027e-001
1479856000	9.386045e-001	2.490456e-001
1489853000	9.427747e-001	2.321691e-001
1499850000	9.466796e-001	2.153458e-001
1509847000	9.506945e-001	1.983237e-001
1519844000	9.546163e-001	1.820802e-001
1529841000	9.582531e-001	1.654874e-001
1539838000	9.610928e-001	1.487010e-001
1549835000	9.648214e-001	1.321024e-001
1559832000	9.665316e-001	1.156890e-001
1569829000	9.686589e-001	9.851436e-002
1579826000	9.701627e-001	8.135311e-002
1589823000	9.713746e-001	6.429655e-002
1599820000	9.723823e-001	4.748495e-002
1609817000	9.723417e-001	3.032236e-002
1619814000	9.723388e-001	1.331164e-002
1629811000	9.727556e-001	-3.478953e-003
1639808000	9.729914e-001	-2.079898e-002
1649805000	9.732376e-001	-3.749395e-002
1659802000	9.725523e-001	-5.477875e-002
1669799000	9.719560e-001	-7.189397e-002
1679796000	9.715658e-001	-8.891107e-002
1689793000	9.701037e-001	-1.054560e-001
1699790000	9.685749e-001	-1.223273e-001
1709787000	9.665281e-001	-1.393033e-001
1719784000	9.638042e-001	-1.558303e-001
1729781000	9.608906e-001	-1.725357e-001
1739778000	9.575070e-001	-1.897314e-001
1749775000	9.540003e-001	-2.058037e-001
1759772000	9.505607e-001	-2.219791e-001
1769769000	9.467949e-001	-2.386018e-001
1779766000	9.428062e-001	-2.547156e-001
1789763000	9.392199e-001	-2.709704e-001
1799760000	9.350277e-001	-2.874791e-001
1809757000	9.308069e-001	-3.034056e-001
1819754000	9.257722e-001	-3.195439e-001
1829751000	9.211361e-001	-3.357949e-001
1839748000	9.153067e-001	-3.514199e-001
1849745000	9.093143e-001	-3.672918e-001
1859742000	9.033331e-001	-3.828880e-001
1869739000	8.968545e-001	-3.982181e-001
1879736000	8.903139e-001	-4.134187e-001
1889733000	8.835585e-001	-4.288270e-001
1899730000	8.764091e-001	-4.438829e-001
1909727000	8.689166e-001	-4.591514e-001
1919724000	8.620002e-001	-4.739389e-001
1929721000	8.541787e-001	-4.893169e-001
1939718000	8.465183e-001	-5.043589e-001
1949715000	8.384150e-001	-5.194698e-001
1959712000	8.303247e-001	-5.339005e-001
1969709000	8.216873e-001	-5.482935e-001
1979706000	8.129786e-001	-5.625193e-001
1989703000	8.043719e-001	-5.768050e-001
1999700000	7.951370e-001	-5.909042e-001
