!Agilent Technologies,E5071C,MY46520295,B.13.20
!Date: Fri Feb 09 07:19:24 2024
!Data & Calibration Information:
!Freq	S22:SOLT2(ON)
!PortZ  Port2:50+j0
!Above PortZ is port z conversion or system Z0 setting when saving the data.
!When reading, reference impedance value at option line is always used.
# Hz S RI R 50
300000	1.001529e+000	-1.185737e-003
10297000	9.996464e-001	-8.346711e-004
20294000	9.994899e-001	-9.521164e-004
30291000	9.997060e-001	-1.894454e-003
40288000	9.995022e-001	-2.041475e-003
50285000	9.998558e-001	-3.065882e-003
60282000	9.996667e-001	-3.372149e-003
70279000	1.000006e+000	-4.129528e-003
80276000	9.996793e-001	-4.528827e-003
90273000	9.996940e-001	-5.049765e-003
100270000	9.994694e-001	-5.525477e-003
110267000	9.996781e-001	-6.335179e-003
120264000	9.999429e-001	-6.374918e-003
130261000	9.999955e-001	-7.022015e-003
140258000	9.998913e-001	-7.370378e-003
150255000	1.000043e+000	-7.701910e-003
160252000	9.996712e-001	-8.421152e-003
170249000	9.997678e-001	-9.140456e-003
180246000	9.997393e-001	-9.859702e-003
190243000	9.992370e-001	-1.036592e-002
200240000	9.998091e-001	-1.125907e-002
210237000	9.996135e-001	-1.168849e-002
220234000	9.998902e-001	-1.190795e-002
230231000	9.994592e-001	-1.220661e-002
240228000	9.992055e-001	-1.297208e-002
250225000	9.997808e-001	-1.336556e-002
260222000	9.997950e-001	-1.353761e-002
270219000	9.996405e-001	-1.400064e-002
280216000	9.993665e-001	-1.460643e-002
290213000	9.991885e-001	-1.510092e-002
300210000	9.992061e-001	-1.595424e-002
310207000	9.991702e-001	-1.645037e-002
320204000	9.990804e-001	-1.730854e-002
330201000	9.989768e-001	-1.803743e-002
340198000	9.988087e-001	-1.831478e-002
350195000	9.989843e-001	-1.891166e-002
360192000	9.988049e-001	-1.932639e-002
370189000	9.989079e-001	-1.968388e-002
380186000	9.991600e-001	-2.017167e-002
390183000	9.991520e-001	-2.017548e-002
400180000	9.991297e-001	-2.076885e-002
410177000	9.989952e-001	-2.133917e-002
420174000	9.991062e-001	-2.158525e-002
430171000	9.989846e-001	-2.230527e-002
440168000	9.986903e-001	-2.286255e-002
450165000	9.986702e-001	-2.377356e-002
460162000	9.986248e-001	-2.413561e-002
470159000	9.981801e-001	-2.528476e-002
480156000	9.983851e-001	-2.560171e-002
490153000	9.982583e-001	-2.573102e-002
500150000	9.982307e-001	-2.646182e-002
510147000	9.983867e-001	-2.684376e-002
520144000	9.985140e-001	-2.720279e-002
530141000	9.982511e-001	-2.689557e-002
540138000	9.982085e-001	-2.775048e-002
550135000	9.982813e-001	-2.827181e-002
560132000	9.981437e-001	-2.885142e-002
570129000	9.976742e-001	-2.962097e-002
580126000	9.979045e-001	-3.047964e-002
590123000	9.980966e-001	-3.090994e-002
600120000	9.976318e-001	-3.165778e-002
610117000	9.974922e-001	-3.247678e-002
620114000	9.973203e-001	-3.265636e-002
630111000	9.972443e-001	-3.305759e-002
640108000	9.973867e-001	-3.369662e-002
650105000	9.974035e-001	-3.393804e-002
660102000	9.974545e-001	-3.434744e-002
670099000	9.972858e-001	-3.410266e-002
680096000	9.977614e-001	-3.442847e-002
690093000	9.973954e-001	-3.514568e-002
700090000	9.971337e-001	-3.535720e-002
710087000	9.972052e-001	-3.659782e-002
720084000	9.971698e-001	-3.721930e-002
730081000	9.964985e-001	-3.790533e-002
740078000	9.963575e-001	-3.877444e-002
750075000	9.966868e-001	-3.950621e-002
760072000	9.963125e-001	-4.012416e-002
770069000	9.967103e-001	-4.017689e-002
780066000	9.960615e-001	-4.061863e-002
790063000	9.968523e-001	-4.036028e-002
800060000	9.965484e-001	-4.070851e-002
810057000	9.967647e-001	-4.087347e-002
820054000	9.968315e-001	-4.137779e-002
830051000	9.965381e-001	-4.194955e-002
840048000	9.964741e-001	-4.241844e-002
850045000	9.963370e-001	-4.366835e-002
860042000	9.955929e-001	-4.370013e-002
870039000	9.958086e-001	-4.491950e-002
880036000	9.952443e-001	-4.572479e-002
890033000	9.955504e-001	-4.659553e-002
900030000	9.954084e-001	-4.702790e-002
910027000	9.956084e-001	-4.701631e-002
920024000	9.952264e-001	-4.697790e-002
930021000	9.958355e-001	-4.727162e-002
940018000	9.958575e-001	-4.767446e-002
950015000	9.957762e-001	-4.803783e-002
960012000	9.958245e-001	-4.819651e-002
970009000	9.955733e-001	-4.882529e-002
980006000	9.954011e-001	-4.911029e-002
990003000	9.950124e-001	-5.019213e-002
1000000000	9.948812e-001	-5.097106e-002
1009997000	9.946354e-001	-5.222966e-002
1019994000	9.942100e-001	-5.300046e-002
1029991000	9.941122e-001	-5.315814e-002
1039988000	9.943288e-001	-5.379361e-002
1049985000	9.944902e-001	-5.436865e-002
1059982000	9.942936e-001	-5.397128e-002
1069979000	9.949713e-001	-5.366941e-002
1079976000	9.947426e-001	-5.411010e-002
1089973000	9.946439e-001	-5.419608e-002
1099970000	9.945097e-001	-5.494930e-002
1109967000	9.947889e-001	-5.530819e-002
1119964000	9.943564e-001	-5.612328e-002
1129961000	9.939332e-001	-5.708203e-002
1139958000	9.940456e-001	-5.752296e-002
1149955000	9.934838e-001	-5.842753e-002
1159952000	9.932525e-001	-5.943433e-002
1169949000	9.933011e-001	-6.017084e-002
1179946000	9.937075e-001	-6.013691e-002
1189943000	9.932895e-001	-6.026372e-002
1199940000	9.935092e-001	-6.027335e-002
1209937000	9.939534e-001	-6.014589e-002
1219934000	9.935880e-001	-6.047236e-002
1229931000	9.936886e-001	-6.057163e-002
1239928000	9.934202e-001	-6.099984e-002
1249925000	9.937659e-001	-6.173560e-002
1259922000	9.927861e-001	-6.240370e-002
1269919000	9.927973e-001	-6.368697e-002
1279916000	9.923020e-001	-6.428120e-002
1289913000	9.921979e-001	-6.515879e-002
1299910000	9.922045e-001	-6.623074e-002
1309907000	9.918954e-001	-6.614636e-002
1319904000	9.924369e-001	-6.668974e-002
1329901000	9.924145e-001	-6.666170e-002
1339898000	9.925283e-001	-6.674341e-002
1349895000	9.924980e-001	-6.662772e-002
1359892000	9.923626e-001	-6.642004e-002
1369889000	9.927244e-001	-6.715560e-002
1379886000	9.929498e-001	-6.764346e-002
1389883000	9.923148e-001	-6.838406e-002
1399880000	9.919999e-001	-6.936895e-002
1409877000	9.916842e-001	-7.016859e-002
1419874000	9.914211e-001	-7.112262e-002
1429871000	9.909143e-001	-7.173780e-002
1439868000	9.907071e-001	-7.213103e-002
1449865000	9.911641e-001	-7.250869e-002
1459862000	9.911285e-001	-7.279640e-002
1469859000	9.913067e-001	-7.250424e-002
1479856000	9.916627e-001	-7.249675e-002
1489853000	9.920523e-001	-7.269951e-002
1499850000	9.918590e-001	-7.261729e-002
1509847000	9.921068e-001	-7.295906e-002
1519844000	9.918051e-001	-7.377116e-002
1529841000	9.913790e-001	-7.431682e-002
1539838000	9.910934e-001	-7.525523e-002
1549835000	9.909969e-001	-7.622488e-002
1559832000	9.901773e-001	-7.673819e-002
1569829000	9.902038e-001	-7.776234e-002
1579826000	9.901613e-001	-7.820828e-002
1589823000	9.900625e-001	-7.805566e-002
1599820000	9.903536e-001	-7.833653e-002
1609817000	9.907676e-001	-7.834520e-002
1619814000	9.912028e-001	-7.830880e-002
1629811000	9.911038e-001	-7.811677e-002
1639808000	9.915209e-001	-7.825471e-002
1649805000	9.912745e-001	-7.878974e-002
1659802000	9.916813e-001	-7.941057e-002
1669799000	9.910675e-001	-8.035721e-002
1679796000	9.910533e-001	-8.115095e-002
1689793000	9.903376e-001	-8.222874e-002
1699790000	9.901245e-001	-8.327497e-002
1709787000	9.897484e-001	-8.336013e-002
1719784000	9.902007e-001	-8.397983e-002
1729781000	9.904807e-001	-8.380645e-002
1739778000	9.907918e-001	-8.399582e-002
1749775000	9.908219e-001	-8.402033e-002
1759772000	9.918783e-001	-8.345616e-002
1769769000	9.922008e-001	-8.346247e-002
1779766000	9.920252e-001	-8.318456e-002
1789763000	9.921611e-001	-8.395715e-002
1799760000	9.916043e-001	-8.461736e-002
1809757000	9.911882e-001	-8.509818e-002
1819754000	9.912366e-001	-8.635592e-002
1829751000	9.906671e-001	-8.784976e-002
1839748000	9.906488e-001	-8.799490e-002
1849745000	9.907711e-001	-8.883816e-002
1859742000	9.910646e-001	-8.928591e-002
1869739000	9.913635e-001	-8.930029e-002
1879736000	9.924234e-001	-8.864187e-002
1889733000	9.928262e-001	-8.844239e-002
1899730000	9.926572e-001	-8.814709e-002
1909727000	9.930541e-001	-8.838164e-002
1919724000	9.934876e-001	-8.827500e-002
1929721000	9.935804e-001	-8.833208e-002
1939718000	9.936412e-001	-8.977310e-002
1949715000	9.929093e-001	-9.051115e-002
1959712000	9.929701e-001	-9.198431e-002
1969709000	9.925794e-001	-9.304958e-002
1979706000	9.929925e-001	-9.363869e-002
1989703000	9.933750e-001	-9.411937e-002
1999700000	9.944317e-001	-9.448561e-002
