! Created Thu Feb 22 09:43:26 2024
! List of port names and net name(s): example Port n = <port_name> <net_name1> <net_name2> ...
! Port 1 = P1 P1 
! Port 2 = R R 
# hz S ma R 50
! 2 Port Network Data from data block
! freq  magS11  angS11  magS21  angS21  magS12  angS12  magS22  angS22  
!     
0    3.33644647e-15                180                  1                  0                  1                  0     3.43457725e-15                180
8.21559042    2.99065933e-09        -90.0000787                  1    -3.12475553e-07                  1    -3.12475553e-07     2.99623736e-09        -90.0000664
82.1559042    2.99065979e-08        -90.0000131                  1    -3.12475553e-06                  1    -3.12475553e-06     2.99623736e-08        -90.0000084
821.559042    2.99065968e-07        -90.0000478                  1    -3.12475553e-05                  1    -3.12475553e-05     2.99623736e-07        -90.0000212
8215.59042    2.99065968e-06        -90.0004703                  1    -0.000312475563                  1    -0.000312475563     2.99623736e-06        -90.0002056
10342.8156    3.76501747e-06         -90.000592                  1    -0.000393383434                  1    -0.000393383434     3.77203935e-06        -90.0002589
13020.8333    4.73987617e-06        -90.0007452        0.999999999    -0.000495240416        0.999999999    -0.000495240416     4.74871619e-06        -90.0003259
16392.258    5.96715056e-06        -90.0009382        0.999999999    -0.000623470774        0.999999999    -0.000623470774     5.97827949e-06        -90.0004102
20636.6301    7.51219748e-06        -90.0011811        0.999999998    -0.000784903258        0.999999998    -0.000784903258     7.52620797e-06        -90.0005164
25979.978    9.45729631e-06        -90.0014869        0.999999997    -0.000988134772        0.999999997    -0.000988134772     9.47493446e-06        -90.0006501
32706.8546    1.19060306e-05        -90.0018718        0.999999996      -0.0012439882        0.999999996      -0.0012439882     1.19282358e-05        -90.0008184
41175.4904    1.49888045e-05        -90.0023565        0.999999993     -0.00156608882        0.999999993     -0.00156608882     1.50167591e-05        -90.0010303
51836.8711    1.88697869e-05        -90.0029666         0.99999999     -0.00197158992         0.99999999     -0.00197158992     1.89049797e-05        -90.0012971
65258.7544    2.37556543e-05        -90.0037348        0.999999983     -0.00248208647        0.999999983     -0.00248208647     2.37999593e-05         -90.001633
82155.9042    2.99065968e-05        -90.0047018        0.999999974     -0.00312476535        0.999999974     -0.00312476535     2.99623736e-05        -90.0020558
103428.156    3.76501747e-05        -90.0059192        0.999999958     -0.00393385374        0.999999958     -0.00393385374     3.77203935e-05        -90.0025881
130208.333    4.73987617e-05        -90.0074518        0.999999934     -0.00495244287        0.999999934     -0.00495244287     4.74871618e-05        -90.0032582
163922.58    5.96715055e-05        -90.0093813        0.999999895     -0.00623478496        0.999999895     -0.00623478496     5.97827947e-05        -90.0041018
206366.301    7.51219745e-05        -90.0118103        0.999999834     -0.00784918664        0.999999834     -0.00784918664     7.52620793e-05        -90.0051638
259799.78    9.45729624e-05        -90.0148683        0.999999736     -0.00988165506        0.999999736     -0.00988165506     9.47493439e-05        -90.0065009
327068.546    0.000119060305        -90.0187181        0.999999582      -0.0124404951        0.999999582      -0.0124404951     0.000119282356        -90.0081841
411754.904    0.000149888043        -90.0235647        0.999999338      -0.0156621109        0.999999338      -0.0156621109     0.000150167588        -90.0103032
518368.711    0.000188697864        -90.0296662        0.999998952      -0.0197183373        0.999998952      -0.0197183373     0.000189049791         -90.012971
652587.544    0.000237556532        -90.0373476         0.99999834      -0.0248257243         0.99999834      -0.0248257243     0.000237999581        -90.0163295
821559.042    0.000299065948        -90.0470178        0.999997374      -0.0312573341        0.999997374      -0.0312573341     0.000299623712        -90.0205576
1034281.56    0.000376501706        -90.0591919        0.999995848      -0.0393578031        0.999995848      -0.0393578031     0.000377203888        -90.0258805
1302083.33    0.000473987536        -90.0745182        0.999993446      -0.0495627131        0.999993446      -0.0495627131     0.000474871526        -90.0325816
1639225.8    0.000596714894        -90.0938129        0.999989677        -0.06242375        0.999989677        -0.06242375     0.000597827762        -90.0410177
2063663.01    0.000751219423        -90.1181034        0.999983798      -0.0786417918        0.999983798      -0.0786417918     0.000752620424        -90.0516383
2597997.8    0.000945728982        -90.1486834        0.999974712      -0.0991110188        0.999974712      -0.0991110188     0.000947492703        -90.0650087
3270685.46     0.00119060177        -90.1871813        0.999960863       -0.124978293        0.999960863       -0.124978293      0.00119282209        -90.0818411
4117549.04     0.00149887787        -90.2356473        0.999940196       -0.157722851        0.999940196       -0.157722851      0.00150167295        -90.1030317
5183687.11     0.00188697354        -90.2966623        0.999910307       -0.199260023        0.999910307       -0.199260023      0.00189049206        -90.1297091
6525875.44     0.00237555515        -90.3734756        0.999868966       -0.252066182        0.999868966       -0.252066182      0.00237998415        -90.1632937
8215590.42     0.00299063918        -90.4701778        0.999815142       -0.319309041        0.999815142       -0.319309041      0.00299621386        -90.2055739
10342815.6     0.00376497657        -90.5919184        0.999750211       -0.404958234        0.999750211       -0.404958234      0.00377199246        -90.2588008
13020833.3     0.00473979457        -90.7451803        0.999678418       -0.513873607        0.999678418       -0.513873607      0.00474862264        -90.3258083
14722004.4     0.00535902276        -90.8425374        0.999639356       -0.583450184        0.999639356       -0.583450184      0.00536900046        -90.3683728
16431180.8     0.00598115538        -90.9403525        0.999604882       -0.653530842        0.999604882       -0.653530842      0.00599228673        -90.4111367
20685631.1     0.00752970776        -91.1838306        0.999535921       -0.828322854        0.999535921       -0.828322854      0.00754370366        -90.5175796
26041666.7     0.00947909954        -91.4903484         0.99947207        -1.04846364         0.99947207        -1.04846364      0.00949668419        -90.6515724
31906481.3      0.0116134762        -91.8259781        0.999417658        -1.28926244        0.999417658        -1.28926244       0.0116349627        -90.7982763
39062500      0.0142174256         -92.235492        0.999360371        -1.58264469        0.999360371        -1.58264469       0.0142436246        -90.9772487
45274018      0.0164773313        -92.5909466        0.999312674        -1.83698104        0.999312674        -1.83698104       0.0165075695        -91.1325672
52083333.3      0.0189542839        -92.9805991        0.999259102        -2.11552847        0.999259102        -2.11552847        0.018988886        -91.3027937
65104166.6      0.0236891863        -93.7256573        0.999146841        -2.64761016        0.999146841        -2.64761016       0.0237319135        -91.6281647
78125000      0.0284216459        -94.4706545        0.999017042        -3.17917892        0.999017042        -3.17917892       0.0284721565        -91.9533197
91145833.3      0.0331511768        -95.2155787         0.99886727        -3.71038087         0.99886727        -3.71038087       0.0332090693         -92.278218
104166667      0.0378772947        -95.9604177        0.998696482           -4.24129        0.998696482           -4.24129       0.0379421119        -92.6028197
117187500      0.0425995172        -96.7051596        0.998504201        -4.77194321        0.998504201        -4.77194321        0.042670751        -92.9270868
130208333      0.0473173638        -97.4497923        0.998290201        -5.30235722        0.998290201        -5.30235722       0.0473944604        -93.2509821
143229167      0.0520303562        -98.1943041        0.998054388        -5.83253715        0.998054388        -5.83253715       0.0521127218        -93.5744704
156250000      0.0567380185         -98.938683        0.997796739        -6.36248113        0.997796739        -6.36248113       0.0568250249        -93.8975181
169270833      0.0614398779        -99.6829173        0.997517276        -6.89218292        0.997517276        -6.89218292       0.0615308681        -94.2200929
182291667      0.0661354642        -100.426995         0.99721605        -7.42163344         0.99721605        -7.42163344       0.0662297584        -94.5421646
195312500      0.0708243106        -101.170906        0.996893132        -7.95082173        0.996893132        -7.95082173       0.0709212121        -94.8637045
208333333      0.0755059534        -101.914637        0.996548609        -8.47973557        0.996548609        -8.47973557       0.0756047544        -95.1846853
221354167       0.080179933        -102.658177        0.996182579        -9.00836188        0.996182579        -9.00836188       0.0802799195        -95.5050818
234375000      0.0848457932        -103.401516        0.995795153        -9.53668697        0.995795153        -9.53668697       0.0849462509          -95.82487
247395833      0.0895030821        -104.144642        0.995386449        -10.0646968        0.995386449        -10.0646968       0.0896033009        -96.1440276
260416667      0.0941513521        -104.887544        0.994956596         -10.592377        0.994956596         -10.592377       0.0942506306        -96.4625335
273437500      0.0987901598        -105.630211         0.99450573        -11.1197132         0.99450573        -11.1197132       0.0988878099         -96.780368
286458333       0.103419067        -106.372633        0.994033993        -11.6466906        0.994033993        -11.6466906        0.103514417        -97.0975128
299479167       0.108037639        -107.114799        0.993541535        -12.1732949        0.993541535        -12.1732949        0.108130038        -97.4139505
312500000       0.112645448        -107.856698        0.993028513        -12.6995114        0.993028513        -12.6995114        0.112734268        -97.7296648
325520833       0.117242071        -108.598321        0.992495091        -13.2253256        0.992495091        -13.2253256         0.11732671        -98.0446405
338541667       0.121827088        -109.339657        0.991941437        -13.7507231        0.991941437        -13.7507231        0.121906971         -98.358863
351562500       0.126400088        -110.080697        0.991367727        -14.2756896        0.991367727        -14.2756896        0.126474671        -98.6723187
364583333       0.130960664         -110.82143        0.990774142        -14.8002109        0.990774142        -14.8002109        0.131029433        -98.9849943
377604167       0.135508414        -111.561848         0.99016087         -15.324273         0.99016087         -15.324273        0.135570888        -99.2968775
390625000       0.140042944        -112.301941        0.989528101         -15.847862        0.989528101         -15.847862        0.140098674        -99.6079562
403645833       0.144563865        -113.041699        0.988876035        -16.3709643        0.988876035        -16.3709643        0.144612436        -99.9182189
416666666       0.149070794        -113.781115        0.988204872        -16.8935663        0.988204872        -16.8935663        0.149111824        -100.227654
429687500       0.153563354        -114.520179        0.987514822        -17.4156548        0.987514822        -17.4156548        0.153596496        -100.536252
442708333       0.158041177        -115.258884        0.986806097        -17.9372167        0.986806097        -17.9372167        0.158066115           -100.844
455729166       0.162503898        -115.997219        0.986078912         -18.458239        0.986078912         -18.458239        0.162520352         -101.15089
468750000       0.166951163        -116.735179        0.985333491        -18.9787092        0.985333491        -18.9787092        0.166958881         -101.45691
481770833       0.171382621        -117.472754        0.984570058        -19.4986147        0.984570058        -19.4986147        0.171381385        -101.762051
494791666       0.175797929        -118.209938        0.983788843        -20.0179434        0.983788843        -20.0179434        0.175787552        -102.066302
507812500       0.180196752        -118.946724         0.98299008        -20.5366833         0.98299008        -20.5366833        0.180177076        -102.369653
520833333       0.184578763        -119.683103        0.982174007        -21.0548226        0.982174007        -21.0548226        0.184549656        -102.672096
533854166       0.188943638         -120.41907        0.981340864          -21.57235        0.981340864          -21.57235        0.188904999        -102.973619
546875000       0.193291066        -121.154618        0.980490896        -22.0892542        0.980490896        -22.0892542        0.193242816        -103.274214
559895833       0.197620737         -121.88974        0.979624351        -22.6055243        0.979624351        -22.6055243        0.197562827        -103.573869
572916666       0.201932355        -122.624431        0.978741479        -23.1211494        0.978741479        -23.1211494        0.201864754        -103.872577
585937500       0.206225626        -123.358685        0.977842535        -23.6361193        0.977842535        -23.6361193        0.206148329        -104.170326
598958333       0.210500265        -124.092497        0.976927774        -24.1504237        0.976927774        -24.1504237        0.210413288        -104.467108
611979166       0.214755997        -124.825862        0.975997456        -24.6640527        0.975997456        -24.6640527        0.214659374        -104.762913
625000000       0.218992551        -125.558774        0.975051843        -25.1769967        0.975051843        -25.1769967        0.218886336         -105.05773
638020833       0.223209666        -126.291229        0.974091197        -25.6892464        0.974091197        -25.6892464        0.223093929        -105.351551
651041666       0.227407088        -127.023223        0.973115785        -26.2007926        0.973115785        -26.2007926        0.227281916        -105.644366
664062500       0.231584568        -127.754752        0.972125875        -26.7116266        0.972125875        -26.7116266        0.231450063        -105.936165
677083333        0.23574187        -128.485812        0.971121736        -27.2217399        0.971121736        -27.2217399        0.235598147        -106.226939
690104166        0.23987876          -129.2164        0.970103638        -27.7311242        0.970103638        -27.7311242        0.239725948        -106.516679
703125000       0.243995014        -129.946512        0.969071855        -28.2397716        0.969071855        -28.2397716        0.243833253        -106.805374
716145833       0.248090417        -130.676147         0.96802666        -28.7476744         0.96802666        -28.7476744        0.247919857        -107.093017
729166666        0.25216476          -131.4053        0.966968328        -29.2548252        0.966968328        -29.2548252        0.251985561        -107.379597
742187500       0.256217841        -132.133971        0.965897134         -29.761217        0.965897134         -29.761217        0.256030171        -107.665105
755208333       0.260249467        -132.862156        0.964813355        -30.2668429        0.964813355        -30.2668429        0.260053502        -107.949532
768229166        0.26425945        -133.589856        0.963717268        -30.7716964        0.963717268        -30.7716964        0.264055374        -108.232871
781250000       0.268247613        -134.317067        0.962609151        -31.2757712        0.962609151        -31.2757712        0.268035614         -108.51511
794270833       0.272213785         -135.04379        0.961489282        -31.7790614        0.961489282        -31.7790614        0.271994057        -108.796243
807291666         0.2761578        -135.770023        0.960357938        -32.2815614        0.960357938        -32.2815614        0.275930542         -109.07626
820312500       0.280079504        -136.495766        0.959215399        -32.7832658        0.959215399        -32.7832658        0.279844917        -109.355153
833333333       0.283978745         -137.22102        0.958061941        -33.2841694        0.958061941        -33.2841694        0.283737035        -109.632914
846354166       0.287855383        -137.945783        0.956897843        -33.7842674        0.956897843        -33.7842674        0.287606757        -109.909534
859375000       0.291709282        -138.670057        0.955723382        -34.2835554        0.955723382        -34.2835554        0.291453949        -110.185006
872395833       0.295540315        -139.393843        0.954538836         -34.782029        0.954538836         -34.782029        0.295278485        -110.459321
885416666       0.299348361        -140.117141        0.953344479        -35.2796844        0.953344479        -35.2796844        0.299080245        -110.732473
898437500       0.303133306        -140.839953        0.952140589        -35.7765177        0.952140589        -35.7765177        0.302859115        -111.004452
911458333       0.306895044         -141.56228        0.950927439        -36.2725257        0.950927439        -36.2725257        0.306614988        -111.275253
924479166       0.310633475        -142.284126        0.949705303        -36.7677051        0.949705303        -36.7677051        0.310347763        -111.544868
937500000       0.314348506         -143.00549        0.948474454        -37.2620531        0.948474454        -37.2620531        0.314057347         -111.81329
950520833       0.318040051        -143.726377        0.947235163        -37.7555671        0.947235163        -37.7555671         0.31774365        -112.080511
963541666       0.321708029         -144.44679        0.945987699        -38.2482449        0.945987699        -38.2482449        0.321406591        -112.346527
976562500       0.325352368         -145.16673        0.944732331        -38.7400842        0.944732331        -38.7400842        0.325046095        -112.611329
989583333          0.328973        -145.886202        0.943469325        -39.2310835        0.943469325        -39.2310835        0.328662091        -112.874912
1.00260417e+09       0.332569867         -146.60521        0.942198948         -39.721241        0.942198948         -39.721241        0.332254518         -113.13727
1.015625e+09       0.336142913        -147.323757        0.940921461        -40.2105556        0.940921461        -40.2105556        0.335823317        -113.398397
1.02864583e+09       0.339692091        -148.041847        0.939637127        -40.6990263        0.939637127        -40.6990263        0.339368436        -113.658286
1.04166667e+09        0.34321736        -148.759485        0.938346205        -41.1866524        0.938346205        -41.1866524        0.342889831        -113.916934
1.0546875e+09       0.346718682        -149.476676        0.937048952        -41.6734332        0.937048952        -41.6734332        0.346387462        -114.174334
