!Agilent Technologies,E5071C,MY46520295,B.13.20
!Date: Fri Feb 09 06:58:19 2024
!Data & Calibration Information:
!Freq	S11:NONE(--)
!PortZ  Port1:50+j0
!Above PortZ is port z conversion or system Z0 setting when saving the data.
!When reading, reference impedance value at option line is always used.
# Hz S RI R 50
300000	1.003473e+000	-1.581310e-002
10298500	8.762914e-001	-4.815157e-001
20297000	5.478125e-001	-8.363611e-001
30295500	8.734960e-002	-9.937526e-001
40294000	-3.944557e-001	-9.123324e-001
50292500	-7.790246e-001	-6.107337e-001
60291000	-9.721170e-001	-1.617886e-001
70289500	-9.272794e-001	3.226217e-001
80288000	-6.579712e-001	7.242920e-001
90286500	-2.341247e-001	9.490795e-001
100285000	2.429350e-001	9.448832e-001
110283500	6.594278e-001	7.202462e-001
120282000	9.215934e-001	3.281906e-001
130280500	9.691520e-001	-1.409493e-001
140279000	7.912510e-001	-5.778803e-001
150277500	4.281623e-001	-8.811465e-001
160276000	-3.708762e-002	-9.775084e-001
170274500	-4.941624e-001	-8.418893e-001
180273000	-8.327552e-001	-5.039034e-001
190271500	-9.695368e-001	-4.603133e-002
200270000	-8.715113e-001	4.198555e-001
210268500	-5.661053e-001	7.824485e-001
220267000	-1.268971e-001	9.564939e-001
230265500	3.379676e-001	9.042778e-001
240264000	7.233161e-001	6.401579e-001
250262500	9.397435e-001	2.281901e-001
260261000	9.386332e-001	-2.369446e-001
270259500	7.193995e-001	-6.480807e-001
280258000	3.314177e-001	-9.092937e-001
290256500	-1.357505e-001	-9.566374e-001
300255000	-5.708480e-001	-7.762730e-001
310253500	-8.690203e-001	-4.106012e-001
320252000	-9.574111e-001	5.250427e-002
330250500	-8.154127e-001	5.016569e-001
340249000	-4.777552e-001	8.277169e-001
350247500	-2.876643e-002	9.538747e-001
360246000	4.238806e-001	8.559078e-001
370244500	7.763625e-001	5.580225e-001
380243000	9.476468e-001	1.308822e-001
390241500	9.000927e-001	-3.264413e-001
400240000	6.428143e-001	-7.082786e-001
410238500	2.355506e-001	-9.259524e-001
420237000	-2.286015e-001	-9.263874e-001
430235500	-6.386341e-001	-7.061522e-001
440234000	-8.951502e-001	-3.178866e-001
450232500	-9.353430e-001	1.449163e-001
460231000	-7.529605e-001	5.713953e-001
470229500	-3.917595e-001	8.595784e-001
480228000	5.978758e-002	9.426607e-001
490226500	4.951633e-001	8.051952e-001
500225000	8.146698e-001	4.809759e-001
510223500	9.457436e-001	4.644167e-002
520222000	8.591445e-001	-3.986641e-001
530220500	5.740223e-001	-7.522217e-001
540219000	1.554296e-001	-9.319348e-001
550217500	-2.995095e-001	-8.935641e-001
560216000	-6.838172e-001	-6.446658e-001
570214500	-9.051515e-001	-2.430569e-001
580213000	-9.103897e-001	2.147633e-001
590211500	-6.991818e-001	6.201261e-001
600210000	-3.227560e-001	8.767052e-001
610208500	1.284557e-001	9.257791e-001
620207000	5.475151e-001	7.583739e-001
630205500	8.390994e-001	4.155831e-001
640204000	9.366817e-001	-2.238668e-002
650202500	8.189499e-001	-4.543385e-001
660201000	5.140024e-001	-7.819200e-001
670199500	9.095034e-002	-9.295146e-001
680198000	-3.523975e-001	-8.624999e-001
690196500	-7.136967e-001	-5.954708e-001
700195000	-9.079958e-001	-1.897616e-001
710193500	-8.886650e-001	2.602013e-001
720192000	-6.607188e-001	6.472865e-001
730190500	-2.780157e-001	8.821753e-001
740189000	1.691071e-001	9.097364e-001
750187500	5.758783e-001	7.252033e-001
760186000	8.483248e-001	3.728348e-001
770184500	9.247553e-001	-6.543147e-002
780183000	7.879447e-001	-4.878346e-001
790181500	4.701039e-001	-7.972978e-001
800180000	4.467788e-002	-9.229863e-001
810178500	-3.904433e-001	-8.354192e-001
820177000	-7.341519e-001	-5.539851e-001
830175500	-9.062203e-001	-1.448041e-001
840174000	-8.662881e-001	2.978094e-001
850172500	-6.238911e-001	6.700941e-001
860171000	-2.358389e-001	8.843709e-001
870169500	2.072012e-001	8.926297e-001
880168000	6.012076e-001	6.922828e-001
890166500	8.557106e-001	3.318712e-001
900165000	9.121445e-001	-1.050130e-001
910163500	7.590551e-001	-5.165777e-001
920162000	4.317557e-001	-8.094716e-001
930160500	6.359874e-003	-9.156777e-001
940159000	-4.195558e-001	-8.116479e-001
950157500	-7.478245e-001	-5.213910e-001
960156000	-9.028716e-001	-1.106364e-001
970154500	-8.481729e-001	3.251060e-001
980153000	-5.958354e-001	6.846187e-001
990151500	-2.043807e-001	8.845964e-001
1000150000	2.348949e-001	8.778231e-001
1010148500	6.196323e-001	6.664490e-001
1020147000	8.604136e-001	3.006631e-001
1030145500	9.021300e-001	-1.341670e-001
1040144000	7.371207e-001	-5.373306e-001
1050142500	4.044792e-001	-8.162328e-001
1060141000	-1.811575e-002	-9.096394e-001
1070139500	-4.353706e-001	-7.969823e-001
1080138000	-7.524133e-001	-5.039683e-001
1090136500	-8.983662e-001	-9.712238e-002
1100135000	-8.392440e-001	3.316204e-001
1110133500	-5.870503e-001	6.839179e-001
1120132000	-1.987895e-001	8.794505e-001
1130130500	2.372266e-001	8.710561e-001
1140129000	6.191783e-001	6.595327e-001
1150127500	8.569170e-001	2.939828e-001
1160126000	8.963911e-001	-1.396483e-001
1170124500	7.295523e-001	-5.396025e-001
1180123000	3.979989e-001	-8.145330e-001
1190121500	-2.160875e-002	-9.049206e-001
1200120000	-4.346990e-001	-7.920538e-001
1210118500	-7.493056e-001	-5.025299e-001
1220117000	-8.958432e-001	-1.000424e-001
1230115500	-8.399739e-001	3.272251e-001
1240114000	-5.907164e-001	6.806766e-001
1250112500	-2.038598e-001	8.777910e-001
1260111000	2.312549e-001	8.730262e-001
1270109500	6.135221e-001	6.639549e-001
1280108000	8.532349e-001	2.999419e-001
1290106500	8.941554e-001	-1.317619e-001
1300105000	7.307489e-001	-5.306729e-001
1310103500	4.016689e-001	-8.083083e-001
1320102000	-1.696907e-002	-9.017054e-001
1330100500	-4.311808e-001	-7.917069e-001
1340099000	-7.475965e-001	-5.029366e-001
1350097500	-8.939770e-001	-1.005202e-001
1360096000	-8.350889e-001	3.277426e-001
1370094500	-5.844990e-001	6.782332e-001
1380093000	-2.012950e-001	8.719305e-001
1390091500	2.276508e-001	8.673521e-001
1400090000	6.065836e-001	6.639956e-001
1410088500	8.456065e-001	3.056309e-001
1420087000	8.913225e-001	-1.229986e-001
1430085500	7.324927e-001	-5.222593e-001
1440084000	4.071222e-001	-8.009863e-001
1450082500	-9.446364e-003	-8.977810e-001
1460081000	-4.197484e-001	-7.907829e-001
1470079500	-7.348101e-001	-5.087258e-001
1480078000	-8.851265e-001	-1.126451e-001
1490076500	-8.361745e-001	3.097511e-001
1500075000	-5.967076e-001	6.631790e-001
1510073500	-2.206549e-001	8.656371e-001
1520072000	2.082329e-001	8.701955e-001
1530070500	5.914967e-001	6.734848e-001
1540069000	8.390176e-001	3.202888e-001
1550067500	8.925933e-001	-1.074609e-001
1560066000	7.402358e-001	-5.098282e-001
1570064500	4.205623e-001	-7.942410e-001
1580063000	7.088764e-003	-8.974506e-001
1590061500	-4.053231e-001	-7.989837e-001
1600060000	-7.255075e-001	-5.227049e-001
1610058500	-8.834469e-001	-1.306369e-001
1620057000	-8.437328e-001	2.905507e-001
1630055500	-6.136218e-001	6.477622e-001
1640054000	-2.424066e-001	8.597534e-001
1650052500	1.874550e-001	8.746759e-001
1660051000	5.759676e-001	6.866983e-001
1670049500	8.319687e-001	3.374861e-001
1680048000	8.940942e-001	-9.057077e-002
1690046500	7.500397e-001	-4.961798e-001
1700045000	4.352820e-001	-7.860765e-001
1710043500	2.569710e-002	-8.974701e-001
1720042000	-3.864485e-001	-8.087754e-001
1730040500	-7.114525e-001	-5.431026e-001
1740039000	-8.795338e-001	-1.594216e-001
1750037500	-8.546620e-001	2.595036e-001
1760036000	-6.403050e-001	6.227506e-001
1770034500	-2.801036e-001	8.488886e-001
1780033000	1.475017e-001	8.827379e-001
1790031500	5.442009e-001	7.119097e-001
1800030000	8.152679e-001	3.737967e-001
1810028500	8.966788e-001	-5.164070e-002
1820027000	7.699150e-001	-4.639742e-001
1830025500	4.678572e-001	-7.674080e-001
1840024000	6.303424e-002	-8.956228e-001
1850022500	-3.517499e-001	-8.243904e-001
1860021000	-6.871063e-001	-5.748879e-001
1870019500	-8.723351e-001	-2.005566e-001
1880018000	-8.673373e-001	2.176889e-001
1890016500	-6.715225e-001	5.902997e-001
1900015000	-3.237673e-001	8.333959e-001
1910013500	1.006636e-001	8.891755e-001
1920012000	5.048135e-001	7.401720e-001
1930010500	7.932681e-001	4.182462e-001
1940009000	8.968972e-001	-5.138489e-004
1950007500	7.931035e-001	-4.159837e-001
1960006000	5.104867e-001	-7.371903e-001
1970004500	1.147102e-001	-8.893115e-001
1980003000	-3.032912e-001	-8.431900e-001
1990001500	-6.527121e-001	-6.125177e-001
2000000000	-8.588584e-001	-2.482143e-001
