!Agilent Technologies,E5071C,MY46520295,B.13.20
!Date: Fri Feb 09 07:02:59 2024
!Data & Calibration Information:
!Freq	S11:NONE(--)
!PortZ  Port1:50+j0
!Above PortZ is port z conversion or system Z0 setting when saving the data.
!When reading, reference impedance value at option line is always used.
# Hz S RI R 50
300000	1.004318e+000	-1.995036e-002
10297000	8.208601e-001	-5.712110e-001
20294000	3.621665e-001	-9.306320e-001
30291000	-2.213239e-001	-9.701083e-001
40288000	-7.250146e-001	-6.736902e-001
50285000	-9.732448e-001	-1.486160e-001
60282000	-8.857110e-001	4.182106e-001
70279000	-5.044083e-001	8.358808e-001
80276000	3.417544e-002	9.741691e-001
90273000	5.536629e-001	8.030387e-001
100270000	8.960986e-001	3.839726e-001
110267000	9.661397e-001	-1.455002e-001
120264000	7.489349e-001	-6.298268e-001
130261000	3.109722e-001	-9.269163e-001
140258000	-2.162098e-001	-9.518995e-001
150255000	-6.768242e-001	-6.994686e-001
160252000	-9.379792e-001	-2.462537e-001
170249000	-9.278846e-001	2.716504e-001
180246000	-6.561318e-001	7.067981e-001
190243000	-2.063549e-001	9.409451e-001
200240000	2.931238e-001	9.171799e-001
210237000	7.106725e-001	6.510023e-001
220234000	9.405274e-001	2.158200e-001
230231000	9.272213e-001	-2.727914e-001
240228000	6.756433e-001	-6.914404e-001
250225000	2.515925e-001	-9.327790e-001
260222000	-2.364327e-001	-9.349425e-001
270219000	-6.627200e-001	-6.971066e-001
280216000	-9.169971e-001	-2.816669e-001
290213000	-9.350903e-001	2.034464e-001
300210000	-7.148748e-001	6.328172e-001
310207000	-3.178371e-001	9.003532e-001
320204000	1.550535e-001	9.425864e-001
330201000	5.877595e-001	7.542463e-001
340198000	8.762503e-001	3.843912e-001
350195000	9.545988e-001	-7.542193e-002
360192000	8.064057e-001	-5.172370e-001
370189000	4.660245e-001	-8.364917e-001
380186000	1.448324e-002	-9.560500e-001
390183000	-4.406992e-001	-8.463620e-001
400180000	-7.894276e-001	-5.326897e-001
410177000	-9.468487e-001	-9.092200e-002
420174000	-8.741295e-001	3.709043e-001
430171000	-5.919530e-001	7.411885e-001
440168000	-1.707696e-001	9.318514e-001
450165000	2.876699e-001	9.028337e-001
460162000	6.771790e-001	6.646369e-001
470159000	9.097865e-001	2.735679e-001
480156000	9.335293e-001	-1.800207e-001
490153000	7.434674e-001	-5.932001e-001
500150000	3.822909e-001	-8.702136e-001
510147000	-6.753051e-002	-9.461365e-001
520144000	-5.019883e-001	-8.024084e-001
530141000	-8.183485e-001	-4.711965e-001
540138000	-9.418681e-001	-2.961083e-002
550135000	-8.432390e-001	4.175031e-001
560132000	-5.474951e-001	7.649645e-001
570129000	-1.250379e-001	9.325716e-001
580126000	3.247743e-001	8.844787e-001
590123000	6.986695e-001	6.340640e-001
600120000	9.138377e-001	2.398618e-001
610117000	9.223377e-001	-2.075150e-001
620114000	7.234062e-001	-6.084502e-001
630111000	3.615690e-001	-8.722478e-001
640108000	-8.221473e-002	-9.388269e-001
650105000	-5.068389e-001	-7.919705e-001
660102000	-8.157667e-001	-4.641527e-001
670099000	-9.359636e-001	-2.965388e-002
680096000	-8.404849e-001	4.112506e-001
690093000	-5.500852e-001	7.561478e-001
700090000	-1.332418e-001	9.261453e-001
710087000	3.134019e-001	8.829602e-001
720084000	6.879569e-001	6.380050e-001
730081000	9.060245e-001	2.480632e-001
740078000	9.189763e-001	-1.978394e-001
750075000	7.245034e-001	-5.988106e-001
760072000	3.671682e-001	-8.642687e-001
770069000	-7.240625e-002	-9.348220e-001
780066000	-4.951361e-001	-7.940366e-001
790063000	-8.048881e-001	-4.732356e-001
800060000	-9.309389e-001	-4.507362e-002
810057000	-8.442649e-001	3.930151e-001
820054000	-5.640959e-001	7.406605e-001
830051000	-1.547960e-001	9.188780e-001
840048000	2.900001e-001	8.865484e-001
850045000	6.684968e-001	6.524209e-001
860042000	8.951758e-001	2.707955e-001
870039000	9.197229e-001	-1.716179e-001
880036000	7.381454e-001	-5.746477e-001
890033000	3.916366e-001	-8.488545e-001
900030000	-4.152451e-002	-9.320768e-001
910027000	-4.645667e-001	-8.069411e-001
920024000	-7.825309e-001	-5.007268e-001
930021000	-9.239196e-001	-8.229122e-002
940018000	-8.555477e-001	3.546560e-001
950015000	-5.931894e-001	7.110565e-001
960012000	-1.954436e-001	9.057337e-001
970009000	2.472700e-001	8.938294e-001
980006000	6.338544e-001	6.793435e-001
990003000	8.772043e-001	3.109720e-001
1000000000	9.230462e-001	-1.272073e-001
1009997000	7.626412e-001	-5.358300e-001
1019994000	4.330601e-001	-8.245149e-001
1029991000	9.072819e-003	-9.298103e-001
1039988000	-4.156750e-001	-8.295555e-001
1049985000	-7.471934e-001	-5.457532e-001
1059982000	-9.127819e-001	-1.412406e-001
1069979000	-8.739485e-001	2.952714e-001
1079976000	-6.378989e-001	6.657897e-001
1089973000	-2.559421e-001	8.865870e-001
1099970000	1.855808e-001	9.047745e-001
1109967000	5.854603e-001	7.166110e-001
1119964000	8.525262e-001	3.639854e-001
1129961000	9.255552e-001	-7.066990e-002
1139958000	7.896819e-001	-4.880297e-001
1149955000	4.788817e-001	-7.935281e-001
1159952000	6.382056e-002	-9.231158e-001
1169949000	-3.625183e-001	-8.490440e-001
1179946000	-7.082163e-001	-5.891942e-001
1189943000	-8.978757e-001	-1.995281e-001
1199940000	-8.881537e-001	2.362915e-001
1209937000	-6.797728e-001	6.194914e-001
1219934000	-3.151146e-001	8.652549e-001
1229931000	1.234688e-001	9.139245e-001
1239928000	5.348989e-001	7.521501e-001
1249925000	8.233601e-001	4.180214e-001
1259922000	9.242244e-001	-1.092505e-002
1269919000	8.148472e-001	-4.357640e-001
1279916000	5.237875e-001	-7.599831e-001
1289913000	1.183564e-001	-9.143524e-001
1299910000	-3.118150e-001	-8.660180e-001
1309907000	-6.740114e-001	-6.270881e-001
1319904000	-8.867891e-001	-2.472714e-001
1329901000	-9.005072e-001	1.894451e-001
1339898000	-7.112704e-001	5.832838e-001
1349895000	-3.615691e-001	8.452982e-001
1359892000	7.410246e-002	9.147863e-001
1369889000	4.903390e-001	7.754267e-001
1379886000	7.938528e-001	4.613482e-001
1389883000	9.184711e-001	4.332503e-002
1399880000	8.357006e-001	-3.840884e-001
1409877000	5.649902e-001	-7.234704e-001
1419874000	1.706127e-001	-8.987240e-001
1429871000	-2.575471e-001	-8.742430e-001
1439868000	-6.266223e-001	-6.584248e-001
1449865000	-8.577204e-001	-2.980866e-001
1459862000	-8.977145e-001	1.252984e-001
1469859000	-7.403933e-001	5.229274e-001
1479856000	-4.159781e-001	8.063523e-001
1489853000	5.114937e-003	9.093343e-001
1499850000	4.281674e-001	8.050011e-001
1509847000	7.537600e-001	5.161641e-001
1519844000	9.085560e-001	1.091105e-001
1529841000	8.571609e-001	-3.225979e-001
1539838000	6.126182e-001	-6.800508e-001
1549835000	2.329349e-001	-8.831490e-001
1559832000	-1.950727e-001	-8.893388e-001
1569829000	-5.773451e-001	-7.014533e-001
1579826000	-8.316637e-001	-3.607833e-001
1589823000	-9.030047e-001	5.850146e-002
1599820000	-7.751194e-001	4.656713e-001
1609817000	-4.737407e-001	7.709125e-001
1619814000	-6.317448e-002	9.039407e-001
1629811000	3.648073e-001	8.314266e-001
1639808000	7.107565e-001	5.675807e-001
1649805000	8.940369e-001	1.730502e-001
1659802000	8.735955e-001	-2.604549e-001
1669799000	6.559438e-001	-6.327485e-001
1679796000	2.941091e-001	-8.611964e-001
1689793000	-1.286798e-001	-8.986370e-001
1699790000	-5.199262e-001	-7.413633e-001
1709787000	-7.973884e-001	-4.253767e-001
1719784000	-9.022818e-001	-1.846610e-002
1729781000	-8.109946e-001	3.936556e-001
1739778000	-5.406555e-001	7.217481e-001
1749775000	-1.463440e-001	8.902040e-001
1759772000	2.845007e-001	8.577380e-001
1769769000	6.527247e-001	6.268465e-001
1779766000	8.708739e-001	2.501449e-001
1789763000	8.876730e-001	-1.831731e-001
1799760000	7.024177e-001	-5.721571e-001
1809757000	3.618932e-001	-8.299684e-001
1819754000	-5.494043e-002	-9.027435e-001
1829751000	-4.559253e-001	-7.785227e-001
1839748000	-7.563484e-001	-4.882398e-001
1849745000	-8.936644e-001	-9.382584e-002
1859742000	-8.383498e-001	3.211792e-001
1869739000	-5.990355e-001	6.682847e-001
1879736000	-2.236764e-001	8.696750e-001
1889733000	2.057599e-001	8.747593e-001
1899730000	5.900256e-001	6.780813e-001
1909727000	8.406123e-001	3.243149e-001
1919724000	8.957194e-001	-1.049054e-001
1929721000	7.451627e-001	-5.075397e-001
1939718000	4.286238e-001	-7.919396e-001
1949715000	2.107877e-002	-8.982996e-001
1959712000	-3.891386e-001	-8.086386e-001
1969709000	-7.119942e-001	-5.437991e-001
1979706000	-8.793995e-001	-1.612532e-001
1989703000	-8.545484e-001	2.568913e-001
1999700000	-6.405559e-001	6.193147e-001
