!Agilent Technologies,E5071C,MY46520295,B.13.20
!Date: Fri Feb 09 07:04:44 2024
!Data & Calibration Information:
!Freq	S11:NONE(--)
!PortZ  Port1:50+j0
!Above PortZ is port z conversion or system Z0 setting when saving the data.
!When reading, reference impedance value at option line is always used.
# Hz S RI R 50
300000	-9.920481e-001	1.655325e-002
10297000	-8.520231e-001	4.785143e-001
20294000	-5.270705e-001	8.174852e-001
30291000	-8.749718e-002	9.661164e-001
40288000	3.671204e-001	8.980138e-001
50285000	7.370957e-001	6.301575e-001
60282000	9.441750e-001	2.248840e-001
70279000	9.437409e-001	-2.302251e-001
80276000	7.349287e-001	-6.352366e-001
90273000	3.626616e-001	-9.002821e-001
100270000	-9.260343e-002	-9.640915e-001
110267000	-5.267551e-001	-8.099336e-001
120264000	-8.396783e-001	-4.712154e-001
130261000	-9.588774e-001	-2.582761e-002
140258000	-8.578314e-001	4.230779e-001
150255000	-5.611705e-001	7.712504e-001
160252000	-1.397733e-001	9.416915e-001
170249000	3.100944e-001	9.006171e-001
180246000	6.890543e-001	6.578841e-001
190243000	9.143319e-001	2.707807e-001
200240000	9.376329e-001	-1.758832e-001
210237000	7.546941e-001	-5.846884e-001
220234000	4.027418e-001	-8.645563e-001
230231000	-3.940964e-002	-9.516237e-001
240228000	-4.736346e-001	-8.235738e-001
250225000	-7.995908e-001	-5.083812e-001
260222000	-9.416783e-001	-7.749410e-002
270219000	-8.669338e-001	3.691490e-001
280216000	-5.951837e-001	7.288016e-001
290213000	-1.900879e-001	9.210363e-001
300210000	2.553045e-001	9.047832e-001
310207000	6.427664e-001	6.882402e-001
320204000	8.872942e-001	3.190502e-001
330201000	9.356999e-001	-1.201918e-001
340198000	7.782795e-001	-5.328593e-001
350195000	4.491916e-001	-8.292410e-001
360192000	1.919656e-002	-9.412644e-001
370189000	-4.158652e-001	-8.420375e-001
380186000	-7.569157e-001	-5.525462e-001
390183000	-9.245079e-001	-1.373501e-001
400180000	-8.814900e-001	3.082363e-001
410177000	-6.374531e-001	6.816147e-001
420174000	-2.500778e-001	8.984300e-001
430171000	1.915048e-001	9.124733e-001
440168000	5.888183e-001	7.235068e-001
450165000	8.550803e-001	3.758505e-001
460162000	9.333069e-001	-5.443553e-002
470159000	8.064182e-001	-4.732822e-001
480156000	5.014005e-001	-7.886883e-001
490153000	8.430567e-002	-9.296155e-001
500150000	-3.526616e-001	-8.620901e-001
510147000	-7.097772e-001	-5.999545e-001
520144000	-9.049648e-001	-2.014447e-001
530141000	-8.935095e-001	2.417889e-001
540138000	-6.781397e-001	6.287485e-001
550135000	-3.097016e-001	8.714308e-001
560132000	1.271438e-001	9.166420e-001
570129000	5.346598e-001	7.568123e-001
580126000	8.225242e-001	4.296686e-001
590123000	9.288921e-001	7.788910e-003
600120000	8.310311e-001	-4.156650e-001
610117000	5.503094e-001	-7.481630e-001
620114000	1.475705e-001	-9.156330e-001
630111000	-2.885867e-001	-8.794016e-001
640108000	-6.595951e-001	-6.461522e-001
650105000	-8.821808e-001	-2.673471e-001
660102000	-9.042175e-001	1.720731e-001
670099000	-7.202096e-001	5.717506e-001
680096000	-3.726031e-001	8.406996e-001
690093000	5.908632e-002	9.184018e-001
700090000	4.766487e-001	7.885271e-001
710087000	7.868075e-001	4.820069e-001
720084000	9.212315e-001	6.798520e-002
730081000	8.507149e-001	-3.611578e-001
740078000	5.913065e-001	-7.099686e-001
750075000	2.003833e-001	-9.011654e-001
760072000	-2.349289e-001	-8.913761e-001
770069000	-6.177264e-001	-6.821336e-001
780066000	-8.610838e-001	-3.197833e-001
790063000	-9.102620e-001	1.146133e-001
800060000	-7.530399e-001	5.225017e-001
810057000	-4.259233e-001	8.121266e-001
820054000	-2.265095e-003	9.177873e-001
830051000	4.223597e-001	8.164745e-001
840048000	7.512977e-001	5.315656e-001
850045000	9.126809e-001	1.276236e-001
860042000	8.704299e-001	-3.044272e-001
870039000	6.351969e-001	-6.685316e-001
880036000	2.591766e-001	-8.840402e-001
890033000	-1.740951e-001	-9.033593e-001
900030000	-5.677290e-001	-7.213902e-001
910027000	-8.346279e-001	-3.790098e-001
920024000	-9.137258e-001	4.871151e-002
930021000	-7.876607e-001	4.647414e-001
940018000	-4.833105e-001	7.764012e-001
950015000	-6.951091e-002	9.125204e-001
960012000	3.600562e-001	8.427894e-001
970009000	7.089551e-001	5.832340e-001
980006000	8.989329e-001	1.929528e-001
990003000	8.884605e-001	-2.405701e-001
1000000000	6.807817e-001	-6.192770e-001
1009997000	3.234205e-001	-8.611334e-001
1019994000	-1.044998e-001	-9.127786e-001
1029991000	-5.084928e-001	-7.629150e-001
1039988000	-7.998575e-001	-4.450024e-001
1049985000	-9.131701e-001	-2.798864e-002
1059982000	-8.225346e-001	3.955602e-001
1069979000	-5.465625e-001	7.307604e-001
1079976000	-1.456699e-001	9.015006e-001
1089973000	2.895594e-001	8.679784e-001
1099970000	6.600478e-001	6.361239e-001
1109967000	8.810905e-001	2.595134e-001
1119964000	9.025987e-001	-1.758099e-001
1129961000	7.218051e-001	-5.703094e-001
1139958000	3.812334e-001	-8.360598e-001
1149955000	-4.130465e-002	-9.167519e-001
1159952000	-4.534737e-001	-7.955873e-001
1169949000	-7.650185e-001	-5.005256e-001
1179946000	-9.081617e-001	-9.477144e-002
1189943000	-8.494428e-001	3.339483e-001
1199940000	-5.984360e-001	6.892070e-001
1209937000	-2.118347e-001	8.892803e-001
1219934000	2.259791e-001	8.873214e-001
1229931000	6.132101e-001	6.812393e-001
1239928000	8.598004e-001	3.195268e-001
1249925000	9.103027e-001	-1.133133e-001
1259922000	7.558971e-001	-5.198489e-001
1269919000	4.329314e-001	-8.082940e-001
1279916000	1.573895e-002	-9.164069e-001
1289913000	-4.042400e-001	-8.216628e-001
1299910000	-7.341260e-001	-5.454212e-001
1309907000	-9.034566e-001	-1.469382e-001
1319904000	-8.701692e-001	2.870809e-001
1329901000	-6.390580e-001	6.570626e-001
1339898000	-2.626218e-001	8.780818e-001
1349895000	1.724603e-001	8.996673e-001
1359892000	5.702332e-001	7.151551e-001
1369889000	8.367414e-001	3.700796e-001
1379886000	9.131652e-001	-5.691537e-002
1389883000	7.850251e-001	-4.708814e-001
1399880000	4.814701e-001	-7.776865e-001
1409877000	7.189241e-002	-9.094000e-001
1419874000	-3.499730e-001	-8.382882e-001
1429871000	-6.920300e-001	-5.840448e-001
1439868000	-8.817918e-001	-2.024486e-001
1449865000	-8.772638e-001	2.261833e-001
1459862000	-6.760072e-001	6.024114e-001
1469859000	-3.228568e-001	8.469354e-001
1479856000	1.059592e-001	9.015372e-001
1489853000	5.133267e-001	7.509232e-001
1499850000	8.041706e-001	4.277034e-001
1509847000	9.118189e-001	7.676660e-003
1519844000	8.127609e-001	-4.137825e-001
1529841000	5.313848e-001	-7.402428e-001
1539838000	1.343156e-001	-8.990297e-001
1549835000	-2.899621e-001	-8.603960e-001
1559832000	-6.494824e-001	-6.311506e-001
1569829000	-8.652955e-001	-2.644563e-001
1579826000	-8.892881e-001	1.606504e-001
1589823000	-7.160508e-001	5.505484e-001
1599820000	-3.810788e-001	8.189927e-001
1609817000	4.132243e-002	9.032858e-001
1619814000	4.566623e-001	7.820380e-001
1629811000	7.689361e-001	4.808066e-001
1639808000	9.053281e-001	6.912136e-002
1649805000	8.346822e-001	-3.568467e-001
1659802000	5.765109e-001	-7.006318e-001
1669799000	1.920395e-001	-8.858065e-001
1679796000	-2.317324e-001	-8.741497e-001
1689793000	-6.017114e-001	-6.724691e-001
1699790000	-8.393430e-001	-3.256229e-001
1709787000	-8.946429e-001	9.135468e-002
1719784000	-7.537618e-001	4.890554e-001
1729781000	-4.444008e-001	7.806727e-001
1739778000	-3.211950e-002	8.980882e-001
1749775000	3.898849e-001	8.102726e-001
1759772000	7.239871e-001	5.346795e-001
1769769000	8.904652e-001	1.346355e-001
1779766000	8.507053e-001	-2.957016e-001
1789763000	6.168612e-001	-6.552051e-001
1799760000	2.465687e-001	-8.640294e-001
1809757000	-1.744788e-001	-8.805273e-001
1819754000	-5.536258e-001	-7.042621e-001
1829751000	-8.110584e-001	-3.764713e-001
1839748000	-8.917207e-001	3.225797e-002
1849745000	-7.780229e-001	4.345562e-001
1859742000	-4.911565e-001	7.428047e-001
1869739000	-9.138185e-002	8.855226e-001
1879736000	3.322085e-001	8.260792e-001
1889733000	6.802292e-001	5.741980e-001
1899730000	8.693029e-001	1.886928e-001
1909727000	8.573346e-001	-2.399888e-001
1919724000	6.475403e-001	-6.107969e-001
1929721000	2.927459e-001	-8.396960e-001
1939718000	-1.239831e-001	-8.786403e-001
1949715000	-5.089793e-001	-7.240289e-001
1959712000	-7.819821e-001	-4.115062e-001
1969709000	-8.816951e-001	-9.007682e-003
1979706000	-7.854677e-001	3.954504e-001
1989703000	-5.130593e-001	7.119279e-001
1999700000	-1.239907e-001	8.665530e-001
