!Agilent Technologies,E5071C,MY46520295,B.13.20
!Date: Fri Feb 09 07:01:28 2024
!Data & Calibration Information:
!Freq	S11:NONE(--)
!PortZ  Port1:50+j0
!Above PortZ is port z conversion or system Z0 setting when saving the data.
!When reading, reference impedance value at option line is always used.
# Hz S RI R 50
300000	-1.000497e+000	1.755544e-002
10297000	-8.604428e-001	4.820164e-001
20294000	-5.327885e-001	8.249418e-001
30291000	-8.925634e-002	9.755604e-001
40288000	3.690909e-001	9.070778e-001
50285000	7.430255e-001	6.373528e-001
60282000	9.525231e-001	2.288963e-001
70279000	9.532488e-001	-2.302331e-001
80276000	7.435593e-001	-6.389991e-001
90273000	3.687081e-001	-9.078451e-001
100270000	-9.041029e-002	-9.738196e-001
110267000	-5.287950e-001	-8.194496e-001
120264000	-8.457883e-001	-4.789200e-001
130261000	-9.681364e-001	-2.984406e-002
140258000	-8.682616e-001	4.229754e-001
150255000	-5.703443e-001	7.757002e-001
160252000	-1.459244e-001	9.501124e-001
170249000	3.086044e-001	9.109289e-001
180246000	6.918268e-001	6.683228e-001
190243000	9.215330e-001	2.789791e-001
200240000	9.482700e-001	-1.715242e-001
210237000	7.661094e-001	-5.854814e-001
220234000	4.131663e-001	-8.706654e-001
230231000	-3.282873e-002	-9.617245e-001
240228000	-4.719777e-001	-8.360232e-001
250225000	-8.036942e-001	-5.203121e-001
260222000	-9.508856e-001	-8.666697e-002
270219000	-8.794896e-001	3.651442e-001
280216000	-6.082558e-001	7.312401e-001
290213000	-2.011109e-001	9.289589e-001
300210000	2.490575e-001	9.169180e-001
310207000	6.428160e-001	7.018528e-001
320204000	8.931893e-001	3.315829e-001
330201000	9.471291e-001	-1.113262e-001
340198000	7.925930e-001	-5.302284e-001
350195000	4.636240e-001	-8.333479e-001
360192000	3.033461e-002	-9.516999e-001
370189000	-4.103195e-001	-8.567725e-001
380186000	-7.582704e-001	-5.681948e-001
390183000	-9.333507e-001	-1.510420e-001
400180000	-8.959580e-001	3.002588e-001
410177000	-6.538137e-001	6.808758e-001
420174000	-2.651188e-001	9.053698e-001
430171000	1.809763e-001	9.254041e-001
440168000	5.848463e-001	7.402414e-001
450165000	8.591531e-001	3.924703e-001
460162000	9.445063e-001	-4.087788e-002
470159000	8.230198e-001	-4.661103e-001
480156000	5.194257e-001	-7.897034e-001
490153000	1.002083e-001	-9.389278e-001
500150000	-3.422157e-001	-8.781451e-001
510147000	-7.075742e-001	-6.190217e-001
520144000	-9.120297e-001	-2.197960e-001
530141000	-9.081076e-001	2.284595e-001
540138000	-6.975426e-001	6.232102e-001
550135000	-3.298777e-001	8.752613e-001
560132000	1.108618e-001	9.295202e-001
570129000	5.254351e-001	7.759948e-001
580126000	8.230643e-001	4.512142e-001
590123000	9.389764e-001	2.720252e-002
600120000	8.487991e-001	-4.030485e-001
610117000	5.721705e-001	-7.447931e-001
620114000	1.689928e-001	-9.226854e-001
630111000	-2.717760e-001	-8.957405e-001
640108000	-6.522249e-001	-6.686817e-001
650105000	-8.856069e-001	-2.914204e-001
660102000	-9.181245e-001	1.519963e-001
670099000	-7.422511e-001	5.599463e-001
680096000	-3.983076e-001	8.403061e-001
690093000	3.537215e-002	9.298307e-001
700090000	4.604724e-001	8.095264e-001
710087000	7.817450e-001	5.085746e-001
720084000	9.289215e-001	9.433484e-002
730081000	8.698371e-001	-3.404170e-001
740078000	6.178604e-001	-6.998429e-001
750075000	2.294443e-001	-9.041209e-001
760072000	-2.103137e-001	-9.075164e-001
770069000	-6.024124e-001	-7.080614e-001
780066000	-8.594038e-001	-3.503902e-001
790063000	-9.226711e-001	8.584137e-002
800060000	-7.778925e-001	5.020304e-001
810057000	-4.577984e-001	8.043904e-001
820054000	-3.481680e-002	9.258363e-001
830051000	3.961243e-001	8.389237e-001
840048000	7.379881e-001	5.637595e-001
850045000	9.152903e-001	1.634144e-001
860042000	8.893814e-001	-2.729209e-001
870039000	6.666407e-001	-6.485299e-001
880036000	2.967471e-001	-8.807394e-001
890033000	-1.380769e-001	-9.174978e-001
900030000	-5.417396e-001	-7.510191e-001
910027000	-8.247549e-001	-4.178630e-001
920024000	-9.229887e-001	8.353782e-003
930021000	-8.143427e-001	4.324448e-001
940018000	-5.228635e-001	7.593699e-001
950015000	-1.139198e-001	9.154568e-001
960012000	3.210825e-001	8.660014e-001
970009000	6.840398e-001	6.222297e-001
980006000	8.947926e-001	2.396153e-001
990003000	9.059747e-001	-1.955822e-001
1000000000	7.174664e-001	-5.873354e-001
1009997000	3.717009e-001	-8.488470e-001
1019994000	-5.499450e-002	-9.237646e-001
1029991000	-4.687882e-001	-7.958906e-001
1039988000	-7.781714e-001	-4.931588e-001
1049985000	-9.159248e-001	-8.202713e-002
1059982000	-8.502644e-001	3.474705e-001
1069979000	-5.942555e-001	6.999393e-001
1079976000	-2.038090e-001	8.957169e-001
1089973000	2.339832e-001	8.895340e-001
1099970000	6.196731e-001	6.821006e-001
1109967000	8.657713e-001	3.201027e-001
1119964000	9.172867e-001	-1.139533e-001
1129961000	7.637617e-001	-5.210930e-001
1139958000	4.423770e-001	-8.109951e-001
1149955000	2.571235e-002	-9.214528e-001
1159952000	-3.946918e-001	-8.309249e-001
1169949000	-7.277289e-001	-5.599433e-001
1179946000	-9.019050e-001	-1.661669e-001
1189943000	-8.770658e-001	2.654106e-001
1199940000	-6.558179e-001	6.397339e-001
1209937000	-2.875245e-001	8.711951e-001
1219934000	1.484371e-001	9.069717e-001
1229931000	5.523628e-001	7.358612e-001
1239928000	8.299551e-001	3.975986e-001
1249925000	9.201045e-001	-2.913335e-002
1259922000	8.039272e-001	-4.488236e-001
1269919000	5.092619e-001	-7.663047e-001
1279916000	1.042889e-001	-9.133666e-001
1289913000	-3.225211e-001	-8.599874e-001
1299910000	-6.777397e-001	-6.180683e-001
1309907000	-8.863022e-001	-2.394418e-001
1319904000	-8.976680e-001	1.943212e-001
1329901000	-7.075669e-001	5.856325e-001
1339898000	-3.582526e-001	8.456713e-001
1349895000	7.032856e-002	9.148868e-001
1359892000	4.854480e-001	7.771597e-001
1369889000	7.886780e-001	4.657234e-001
1379886000	9.150256e-001	5.158608e-002
1389883000	8.375691e-001	-3.733983e-001
1399880000	5.741401e-001	-7.145037e-001
1409877000	1.845876e-001	-8.949664e-001
1419874000	-2.419206e-001	-8.776887e-001
1429871000	-6.122354e-001	-6.696303e-001
1439868000	-8.488210e-001	-3.170774e-001
1449865000	-9.006204e-001	1.060265e-001
1459862000	-7.532615e-001	5.039933e-001
1469859000	-4.394870e-001	7.936423e-001
1479856000	-2.505631e-002	9.085809e-001
1489853000	3.976636e-001	8.189387e-001
1499850000	7.326795e-001	5.441603e-001
1509847000	9.022151e-001	1.465467e-001
1519844000	8.693460e-001	-2.842618e-001
1529841000	6.425794e-001	-6.505766e-001
1539838000	2.746943e-001	-8.710075e-001
1549835000	-1.514140e-001	-8.989358e-001
1559832000	-5.414211e-001	-7.296142e-001
1569829000	-8.121977e-001	-4.042671e-001
1579826000	-9.060140e-001	9.087509e-003
1589823000	-8.014325e-001	4.206755e-001
1599820000	-5.198460e-001	7.413237e-001
1609817000	-1.215062e-001	8.981369e-001
1619814000	3.068013e-001	8.541297e-001
1629811000	6.678346e-001	6.169465e-001
1639808000	8.786218e-001	2.390988e-001
1649805000	8.901352e-001	-1.921180e-001
1659802000	7.034432e-001	-5.789330e-001
1669799000	3.618264e-001	-8.352846e-001
1679796000	-5.567927e-002	-9.069140e-001
1689793000	-4.580486e-001	-7.823519e-001
1699790000	-7.598233e-001	-4.913208e-001
1709787000	-8.986926e-001	-9.595835e-002
1719784000	-8.440541e-001	3.209601e-001
1729781000	-6.053939e-001	6.693898e-001
1739778000	-2.314334e-001	8.728414e-001
1749775000	1.974512e-001	8.820994e-001
1759772000	5.843904e-001	6.911505e-001
1769769000	8.393340e-001	3.413738e-001
1779766000	9.026259e-001	-8.653254e-002
1789763000	7.611909e-001	-4.927268e-001
1799760000	4.504071e-001	-7.857842e-001
1809757000	4.421840e-002	-9.040457e-001
1819754000	-3.681572e-001	-8.256134e-001
1829751000	-6.987626e-001	-5.710229e-001
1839748000	-8.794731e-001	-1.955812e-001
1849745000	-8.721155e-001	2.218699e-001
1859742000	-6.764396e-001	5.930472e-001
1869739000	-3.303473e-001	8.365878e-001
1879736000	9.212861e-002	8.954385e-001
1889733000	4.968318e-001	7.511546e-001
1899730000	7.886066e-001	4.343434e-001
1909727000	9.017683e-001	1.817762e-002
1919724000	8.084108e-001	-4.013786e-001
1929721000	5.335030e-001	-7.276279e-001
1939718000	1.431797e-001	-8.892514e-001
1949715000	-2.745717e-001	-8.563367e-001
1959712000	-6.313172e-001	-6.389737e-001
1969709000	-8.509683e-001	-2.837793e-001
1979706000	-8.855795e-001	1.326715e-001
1989703000	-7.265635e-001	5.207321e-001
1999700000	-4.066058e-001	7.945154e-001
