!Agilent Technologies,E5071C,MY46520295,B.13.20
!Date: Fri Feb 09 06:55:53 2024
!Data & Calibration Information:
!Freq	S11:NONE(--)
!PortZ  Port1:50+j0
!Above PortZ is port z conversion or system Z0 setting when saving the data.
!When reading, reference impedance value at option line is always used.
# Hz S RI R 50
300000	1.458990e-002	-1.126708e-003
10298500	1.707444e-002	-1.126115e-003
20297000	1.733855e-002	-4.751504e-003
30295500	1.588360e-002	-8.576902e-003
40294000	1.263533e-002	-1.124653e-002
50292500	8.068629e-003	-1.300126e-002
60291000	3.104668e-003	-1.253995e-002
70289500	-1.002445e-003	-9.666385e-003
80288000	-4.093313e-003	-5.297989e-003
90286500	-4.632560e-003	-2.499831e-005
100285000	-3.036530e-003	5.045426e-003
110283500	1.403798e-003	9.275379e-003
120282000	7.334593e-003	1.133334e-002
130280500	1.369402e-002	1.021482e-002
140279000	1.919577e-002	6.121648e-003
150277500	2.223924e-002	-7.424800e-005
160276000	2.229722e-002	-7.795439e-003
170274500	1.903258e-002	-1.467799e-002
180273000	1.256656e-002	-1.984469e-002
190271500	4.074699e-003	-2.152821e-002
200270000	-4.796343e-003	-1.922031e-002
210268500	-1.179479e-002	-1.307789e-002
220267000	-1.553270e-002	-3.943104e-003
230265500	-1.509354e-002	6.130590e-003
240264000	-9.702542e-003	1.513012e-002
250262500	-6.717205e-004	2.138104e-002
260261000	1.044227e-002	2.272447e-002
270259500	2.121939e-002	1.899676e-002
280258000	2.983302e-002	1.092805e-002
290256500	3.361650e-002	-6.196790e-004
300255000	3.221740e-002	-1.299736e-002
310253500	2.484322e-002	-2.340404e-002
320252000	1.366791e-002	-3.009848e-002
330250500	4.434636e-004	-3.086788e-002
340249000	-1.213141e-002	-2.545629e-002
350247500	-2.106654e-002	-1.513397e-002
360246000	-2.463911e-002	-1.376123e-003
370244500	-2.172031e-002	1.283036e-002
380243000	-1.230591e-002	2.439560e-002
390241500	1.227381e-003	3.039365e-002
400240000	1.601342e-002	3.049690e-002
410238500	2.919135e-002	2.328966e-002
420237000	3.787238e-002	1.045561e-002
430235500	3.983745e-002	-5.704537e-003
440234000	3.491748e-002	-2.105570e-002
450232500	2.380585e-002	-3.245597e-002
460231000	8.095043e-003	-3.720164e-002
470229500	-8.254795e-003	-3.429600e-002
480228000	-2.207444e-002	-2.413024e-002
490226500	-2.973944e-002	-8.950925e-003
500225000	-2.947659e-002	8.307830e-003
510223500	-2.149329e-002	2.408219e-002
520222000	-6.870152e-003	3.458244e-002
530220500	1.109876e-002	3.731569e-002
540219000	2.867858e-002	3.162668e-002
550217500	4.166059e-002	1.819415e-002
560216000	4.770460e-002	2.379159e-004
570214500	4.450563e-002	-1.854167e-002
580213000	3.334445e-002	-3.413196e-002
590211500	1.611466e-002	-4.325455e-002
600210000	-3.544901e-003	-4.359239e-002
610208500	-2.138629e-002	-3.474237e-002
620207000	-3.343923e-002	-1.868293e-002
630205500	-3.681876e-002	1.204637e-003
640204000	-3.064319e-002	2.043818e-002
650202500	-1.607034e-002	3.487388e-002
660201000	3.563543e-003	4.138886e-002
670199500	2.417614e-002	3.782351e-002
680198000	4.125324e-002	2.497143e-002
690196500	5.042119e-002	5.459969e-003
700195000	4.969925e-002	-1.664483e-002
710193500	3.921212e-002	-3.608415e-002
720192000	2.065800e-002	-4.886341e-002
730190500	-1.993562e-003	-5.182076e-002
740189000	-2.388839e-002	-4.432052e-002
750187500	-4.039213e-002	-2.750944e-002
760186000	-4.772104e-002	-4.827157e-003
770184500	-4.360792e-002	1.890533e-002
780183000	-2.932871e-002	3.859978e-002
790181500	-7.082203e-003	5.001002e-002
800180000	1.776437e-002	4.982102e-002
810178500	4.001788e-002	3.837052e-002
820177000	5.506090e-002	1.775518e-002
830175500	5.934830e-002	-7.646860e-003
840174000	5.156792e-002	-3.248058e-002
850172500	3.347628e-002	-5.142744e-002
860171000	8.338790e-003	-6.009621e-002
870169500	-1.809949e-002	-5.657293e-002
880168000	-4.015590e-002	-4.145728e-002
890166500	-5.309618e-002	-1.795426e-002
900165000	-5.413712e-002	9.192651e-003
910163500	-4.267915e-002	3.409850e-002
920162000	-2.106690e-002	5.092800e-002
930160500	5.889438e-003	5.635809e-002
940159000	3.272311e-002	4.896241e-002
950157500	5.354779e-002	3.016635e-002
960156000	6.335914e-002	3.820492e-003
970154500	6.031674e-002	-2.425769e-002
980153000	4.503711e-002	-4.782001e-002
990151500	2.103610e-002	-6.213773e-002
1000150000	-6.797404e-003	-6.407237e-002
1010148500	-3.293796e-002	-5.336788e-002
1020147000	-5.114706e-002	-3.205535e-002
1030145500	-5.752097e-002	-5.033312e-003
1040144000	-5.106090e-002	2.215362e-002
1050142500	-3.262225e-002	4.334560e-002
1060141000	-6.991046e-003	5.368633e-002
1070139500	2.097236e-002	5.116667e-002
1080138000	4.463177e-002	3.619441e-002
1090136500	5.917491e-002	1.209496e-002
1100135000	6.077342e-002	-1.642782e-002
1110133500	4.908822e-002	-4.280324e-002
1120132000	2.694041e-002	-6.076002e-002
1130130500	-8.255384e-004	-6.679612e-002
1140129000	-2.851202e-002	-5.894891e-002
1150127500	-4.950055e-002	-3.927021e-002
1160126000	-5.973469e-002	-1.288921e-002
1170124500	-5.640927e-002	1.539134e-002
1180123000	-4.049146e-002	3.923405e-002
1190121500	-1.545829e-002	5.334056e-002
1200120000	1.314119e-002	5.454322e-002
1210118500	3.882776e-002	4.185946e-002
1220117000	5.609637e-002	1.865711e-002
1230115500	6.082442e-002	-9.673980e-003
1240114000	5.201125e-002	-3.713030e-002
1250112500	3.155111e-002	-5.736234e-002
1260111000	3.429064e-003	-6.624557e-002
1270109500	-2.553033e-002	-6.144824e-002
1280108000	-4.933563e-002	-4.370665e-002
1290106500	-6.230264e-002	-1.694009e-002
1300105000	-6.171390e-002	1.277001e-002
1310103500	-4.758319e-002	3.958570e-002
1320102000	-2.283876e-002	5.693994e-002
1330100500	7.021807e-003	6.134484e-002
1340099000	3.564816e-002	5.109036e-002
1350097500	5.646844e-002	2.883479e-002
1360096000	6.554679e-002	-3.681419e-004
1370094500	6.005154e-002	-3.009990e-002
1380093000	4.121500e-002	-5.393406e-002
1390091500	1.347507e-002	-6.691628e-002
1400090000	-1.757226e-002	-6.589056e-002
1410088500	-4.379750e-002	-5.148308e-002
1420087000	-6.056612e-002	-2.648926e-002
1430085500	-6.434913e-002	4.146172e-003
1440084000	-5.389296e-002	3.329051e-002
1450082500	-3.139827e-002	5.466232e-002
1460081000	-1.575744e-003	6.225387e-002
1470079500	2.855542e-002	5.552138e-002
1480078000	5.245514e-002	3.601281e-002
1490076500	6.476632e-002	7.817485e-003
1500075000	6.287368e-002	-2.258309e-002
1510073500	4.719666e-002	-4.952002e-002
1520072000	2.133426e-002	-6.623555e-002
1530070500	-9.492765e-003	-6.963954e-002
1540069000	-3.794432e-002	-5.829828e-002
1550067500	-5.857608e-002	-3.505980e-002
1560066000	-6.602642e-002	-5.013953e-003
1570064500	-5.955734e-002	2.466223e-002
1580063000	-3.982505e-002	4.805015e-002
1590061500	-1.175031e-002	5.955879e-002
1600060000	1.862977e-002	5.749253e-002
1610058500	4.449156e-002	4.139405e-002
1620057000	6.020944e-002	1.526574e-002
1630055500	6.254917e-002	-1.502105e-002
1640054000	5.085862e-002	-4.306348e-002
1650052500	2.768392e-002	-6.247645e-002
1660051000	-1.655505e-003	-6.968584e-002
1670049500	-3.096513e-002	-6.276731e-002
1680048000	-5.386932e-002	-4.336055e-002
1690046500	-6.501206e-002	-1.609613e-002
1700045000	-6.271165e-002	1.317448e-002
1710043500	-4.715284e-002	3.746491e-002
1720042000	-2.248020e-002	5.192243e-002
1730040500	5.986278e-003	5.350828e-002
1740039000	3.145844e-002	4.175382e-002
1750037500	4.853391e-002	1.973016e-002
1760036000	5.352381e-002	-7.981907e-003
1770034500	4.542819e-002	-3.435172e-002
1780033000	2.599530e-002	-5.407540e-002
1790031500	-6.850784e-005	-6.236175e-002
1800030000	-2.706549e-002	-5.760123e-002
1810028500	-4.834518e-002	-4.132189e-002
1820027000	-5.970129e-002	-1.758415e-002
1830025500	-5.840817e-002	8.710020e-003
1840024000	-4.537723e-002	3.144559e-002
1850022500	-2.368904e-002	4.534625e-002
1860021000	2.136684e-003	4.699646e-002
1870019500	2.549906e-002	3.675303e-002
1880018000	4.123436e-002	1.685324e-002
1890016500	4.557403e-002	-7.875857e-003
1900015000	3.754450e-002	-3.130456e-002
1910013500	1.973055e-002	-4.866730e-002
1920012000	-3.838761e-003	-5.541684e-002
1930010500	-2.768384e-002	-4.971439e-002
1940009000	-4.611955e-002	-3.332602e-002
1950007500	-5.494981e-002	-1.021936e-002
1960006000	-5.129260e-002	1.387157e-002
1970004500	-3.622499e-002	3.378103e-002
1980003000	-1.364262e-002	4.458528e-002
1990001500	1.157185e-002	4.355069e-002
2000000000	3.304164e-002	3.090956e-002
