! Created Mon Apr  8 00:03:12 2024
! List of port names and net name(s): example Port n = <port_name> <net_name1> <net_name2> ...
! Port 1 = P4 P4 
! Port 2 = P5 P5 
! Port 3 = P6 P4 
! Port 4 = P7 P5 
! Port 5 = P8 P13 
! Port 6 = P9 P18 
! Port 7 = P10 P10 
! Port 8 = P11 P11 
! Port 9 = P12 P18 
! Port 10 = P13 P13 
! Port 11 = P14 P13 
! Port 12 = P15 P17 
! Port 13 = P16 P22 
! Port 14 = P17 P17 
! Port 15 = P18 P18 
! Port 16 = P20 P20 
! Port 17 = P21 P21 
! Port 18 = P22 P22 
! Port 19 = P19 P22 
# hz S ma R 50
! 19 Port Network Data from data block
! freq  magS1_1  angS1_1  magS1_2  angS1_2  magS1_3  angS1_3  magS1_4  angS1_4  
!       magS1_5  angS1_5  magS1_6  angS1_6  magS1_7  angS1_7  magS1_8  angS1_8  
!       magS1_9  angS1_9  magS1_10  angS1_10  magS1_11  angS1_11  magS1_12  angS1_12  
!       magS1_13  angS1_13  magS1_14  angS1_14  magS1_15  angS1_15  magS1_16  angS1_16  
!       magS1_17  angS1_17  magS1_18  angS1_18  magS1_19  angS1_19  
!       magS2_1  angS2_1  
!       magS2_2  angS2_2  magS2_3  angS2_3  magS2_4  angS2_4  magS2_5  angS2_5  
!       magS2_6  angS2_6  magS2_7  angS2_7  magS2_8  angS2_8  magS2_9  angS2_9  
!       magS2_10  angS2_10  magS2_11  angS2_11  magS2_12  angS2_12  magS2_13  angS2_13  
!       magS2_14  angS2_14  magS2_15  angS2_15  magS2_16  angS2_16  magS2_17  angS2_17  
!       magS2_18  angS2_18  magS2_19  angS2_19  
!       magS3_1  angS3_1  magS3_2  angS3_2  
!       magS3_3  angS3_3  magS3_4  angS3_4  magS3_5  angS3_5  magS3_6  angS3_6  
!       magS3_7  angS3_7  magS3_8  angS3_8  magS3_9  angS3_9  magS3_10  angS3_10  
!       magS3_11  angS3_11  magS3_12  angS3_12  magS3_13  angS3_13  magS3_14  angS3_14  
!       magS3_15  angS3_15  magS3_16  angS3_16  magS3_17  angS3_17  magS3_18  angS3_18  
!       magS3_19  angS3_19  
!       magS4_1  angS4_1  magS4_2  angS4_2  magS4_3  angS4_3  
!       magS4_4  angS4_4  magS4_5  angS4_5  magS4_6  angS4_6  magS4_7  angS4_7  
!       magS4_8  angS4_8  magS4_9  angS4_9  magS4_10  angS4_10  magS4_11  angS4_11  
!       magS4_12  angS4_12  magS4_13  angS4_13  magS4_14  angS4_14  magS4_15  angS4_15  
!       magS4_16  angS4_16  magS4_17  angS4_17  magS4_18  angS4_18  magS4_19  angS4_19  
!       magS5_1  angS5_1  magS5_2  angS5_2  magS5_3  angS5_3  magS5_4  angS5_4  
!       magS5_5  angS5_5  magS5_6  angS5_6  magS5_7  angS5_7  magS5_8  angS5_8  
!       magS5_9  angS5_9  magS5_10  angS5_10  magS5_11  angS5_11  magS5_12  angS5_12  
!       magS5_13  angS5_13  magS5_14  angS5_14  magS5_15  angS5_15  magS5_16  angS5_16  
!       magS5_17  angS5_17  magS5_18  angS5_18  magS5_19  angS5_19  
!       magS6_1  angS6_1  
!       magS6_2  angS6_2  magS6_3  angS6_3  magS6_4  angS6_4  magS6_5  angS6_5  
!       magS6_6  angS6_6  magS6_7  angS6_7  magS6_8  angS6_8  magS6_9  angS6_9  
!       magS6_10  angS6_10  magS6_11  angS6_11  magS6_12  angS6_12  magS6_13  angS6_13  
!       magS6_14  angS6_14  magS6_15  angS6_15  magS6_16  angS6_16  magS6_17  angS6_17  
!       magS6_18  angS6_18  magS6_19  angS6_19  
!       magS7_1  angS7_1  magS7_2  angS7_2  
!       magS7_3  angS7_3  magS7_4  angS7_4  magS7_5  angS7_5  magS7_6  angS7_6  
!       magS7_7  angS7_7  magS7_8  angS7_8  magS7_9  angS7_9  magS7_10  angS7_10  
!       magS7_11  angS7_11  magS7_12  angS7_12  magS7_13  angS7_13  magS7_14  angS7_14  
!       magS7_15  angS7_15  magS7_16  angS7_16  magS7_17  angS7_17  magS7_18  angS7_18  
!       magS7_19  angS7_19  
!       magS8_1  angS8_1  magS8_2  angS8_2  magS8_3  angS8_3  
!       magS8_4  angS8_4  magS8_5  angS8_5  magS8_6  angS8_6  magS8_7  angS8_7  
!       magS8_8  angS8_8  magS8_9  angS8_9  magS8_10  angS8_10  magS8_11  angS8_11  
!       magS8_12  angS8_12  magS8_13  angS8_13  magS8_14  angS8_14  magS8_15  angS8_15  
!       magS8_16  angS8_16  magS8_17  angS8_17  magS8_18  angS8_18  magS8_19  angS8_19  
!       magS9_1  angS9_1  magS9_2  angS9_2  magS9_3  angS9_3  magS9_4  angS9_4  
!       magS9_5  angS9_5  magS9_6  angS9_6  magS9_7  angS9_7  magS9_8  angS9_8  
!       magS9_9  angS9_9  magS9_10  angS9_10  magS9_11  angS9_11  magS9_12  angS9_12  
!       magS9_13  angS9_13  magS9_14  angS9_14  magS9_15  angS9_15  magS9_16  angS9_16  
!       magS9_17  angS9_17  magS9_18  angS9_18  magS9_19  angS9_19  
!       magS10_1  angS10_1  
!       magS10_2  angS10_2  magS10_3  angS10_3  magS10_4  angS10_4  magS10_5  angS10_5  
!       magS10_6  angS10_6  magS10_7  angS10_7  magS10_8  angS10_8  magS10_9  angS10_9  
!       magS10_10  angS10_10  magS10_11  angS10_11  magS10_12  angS10_12  magS10_13  angS10_13  
!       magS10_14  angS10_14  magS10_15  angS10_15  magS10_16  angS10_16  magS10_17  angS10_17  
!       magS10_18  angS10_18  magS10_19  angS10_19  
!       magS11_1  angS11_1  magS11_2  angS11_2  
!       magS11_3  angS11_3  magS11_4  angS11_4  magS11_5  angS11_5  magS11_6  angS11_6  
!       magS11_7  angS11_7  magS11_8  angS11_8  magS11_9  angS11_9  magS11_10  angS11_10  
!       magS11_11  angS11_11  magS11_12  angS11_12  magS11_13  angS11_13  magS11_14  angS11_14  
!       magS11_15  angS11_15  magS11_16  angS11_16  magS11_17  angS11_17  magS11_18  angS11_18  
!       magS11_19  angS11_19  
!       magS12_1  angS12_1  magS12_2  angS12_2  magS12_3  angS12_3  
!       magS12_4  angS12_4  magS12_5  angS12_5  magS12_6  angS12_6  magS12_7  angS12_7  
!       magS12_8  angS12_8  magS12_9  angS12_9  magS12_10  angS12_10  magS12_11  angS12_11  
!       magS12_12  angS12_12  magS12_13  angS12_13  magS12_14  angS12_14  magS12_15  angS12_15  
!       magS12_16  angS12_16  magS12_17  angS12_17  magS12_18  angS12_18  magS12_19  angS12_19  
!       magS13_1  angS13_1  magS13_2  angS13_2  magS13_3  angS13_3  magS13_4  angS13_4  
!       magS13_5  angS13_5  magS13_6  angS13_6  magS13_7  angS13_7  magS13_8  angS13_8  
!       magS13_9  angS13_9  magS13_10  angS13_10  magS13_11  angS13_11  magS13_12  angS13_12  
!       magS13_13  angS13_13  magS13_14  angS13_14  magS13_15  angS13_15  magS13_16  angS13_16  
!       magS13_17  angS13_17  magS13_18  angS13_18  magS13_19  angS13_19  
!       magS14_1  angS14_1  
!       magS14_2  angS14_2  magS14_3  angS14_3  magS14_4  angS14_4  magS14_5  angS14_5  
!       magS14_6  angS14_6  magS14_7  angS14_7  magS14_8  angS14_8  magS14_9  angS14_9  
!       magS14_10  angS14_10  magS14_11  angS14_11  magS14_12  angS14_12  magS14_13  angS14_13  
!       magS14_14  angS14_14  magS14_15  angS14_15  magS14_16  angS14_16  magS14_17  angS14_17  
!       magS14_18  angS14_18  magS14_19  angS14_19  
!       magS15_1  angS15_1  magS15_2  angS15_2  
!       magS15_3  angS15_3  magS15_4  angS15_4  magS15_5  angS15_5  magS15_6  angS15_6  
!       magS15_7  angS15_7  magS15_8  angS15_8  magS15_9  angS15_9  magS15_10  angS15_10  
!       magS15_11  angS15_11  magS15_12  angS15_12  magS15_13  angS15_13  magS15_14  angS15_14  
!       magS15_15  angS15_15  magS15_16  angS15_16  magS15_17  angS15_17  magS15_18  angS15_18  
!       magS15_19  angS15_19  
!       magS16_1  angS16_1  magS16_2  angS16_2  magS16_3  angS16_3  
!       magS16_4  angS16_4  magS16_5  angS16_5  magS16_6  angS16_6  magS16_7  angS16_7  
!       magS16_8  angS16_8  magS16_9  angS16_9  magS16_10  angS16_10  magS16_11  angS16_11  
!       magS16_12  angS16_12  magS16_13  angS16_13  magS16_14  angS16_14  magS16_15  angS16_15  
!       magS16_16  angS16_16  magS16_17  angS16_17  magS16_18  angS16_18  magS16_19  angS16_19  
!       magS17_1  angS17_1  magS17_2  angS17_2  magS17_3  angS17_3  magS17_4  angS17_4  
!       magS17_5  angS17_5  magS17_6  angS17_6  magS17_7  angS17_7  magS17_8  angS17_8  
!       magS17_9  angS17_9  magS17_10  angS17_10  magS17_11  angS17_11  magS17_12  angS17_12  
!       magS17_13  angS17_13  magS17_14  angS17_14  magS17_15  angS17_15  magS17_16  angS17_16  
!       magS17_17  angS17_17  magS17_18  angS17_18  magS17_19  angS17_19  
!       magS18_1  angS18_1  
!       magS18_2  angS18_2  magS18_3  angS18_3  magS18_4  angS18_4  magS18_5  angS18_5  
!       magS18_6  angS18_6  magS18_7  angS18_7  magS18_8  angS18_8  magS18_9  angS18_9  
!       magS18_10  angS18_10  magS18_11  angS18_11  magS18_12  angS18_12  magS18_13  angS18_13  
!       magS18_14  angS18_14  magS18_15  angS18_15  magS18_16  angS18_16  magS18_17  angS18_17  
!       magS18_18  angS18_18  magS18_19  angS18_19  
!       magS19_1  angS19_1  magS19_2  angS19_2  
!       magS19_3  angS19_3  magS19_4  angS19_4  magS19_5  angS19_5  magS19_6  angS19_6  
!       magS19_7  angS19_7  magS19_8  angS19_8  magS19_9  angS19_9  magS19_10  angS19_10  
!       magS19_11  angS19_11  magS19_12  angS19_12  magS19_13  angS19_13  magS19_14  angS19_14  
!       magS19_15  angS19_15  magS19_16  angS19_16  magS19_17  angS19_17  magS19_18  angS19_18  
!       magS19_19  angS19_19  
!     
0    3.39097516e-37                180     4.55416227e-23                180                  1                  0     8.45182591e-24                180
                   8.83431858e-19                  0     7.11599331e-22                180     3.00529859e-21                180     3.99878692e-21                180
                   3.27814552e-22                180     8.82658121e-19                  0     8.82795126e-19                  0     9.38544176e-22                180
                   1.49378841e-21                180      9.3943104e-22                180      4.8172691e-22                180     1.58530828e-22                180
                   1.57504713e-22                180     1.49378841e-21                180     4.83227467e-22                  0
                   4.55416227e-23                180     1.40764367e-37                180     8.41164402e-24                180                  1                  0
                   1.40246357e-21                180     6.80390218e-19                  0     1.82259489e-21                180     4.52624656e-20                180
                   6.79966642e-19                  0     9.99332864e-22                180     9.62715464e-22                180     3.42274601e-22                180
                   5.28814938e-22                180     3.53547454e-22                180     6.79810707e-19                  0     4.30506279e-21                180
                    4.3334191e-21                180     5.28814938e-22                180     4.80595146e-21                180
                                1                  0     8.41164402e-24                180     6.52381331e-37                180     4.56196336e-23                180
                   8.80260155e-19                  0     2.97304135e-22                180     2.95169252e-21                  0     3.94496291e-21                  0
                   6.89445668e-22                180     8.84012652e-19                  0     8.83289503e-19                  0     9.40715281e-22                180
                   1.76048034e-22                180     9.38949716e-22                180      5.2841175e-22                180     1.57623315e-22                180
                   1.58585988e-22                180     1.76048034e-22                180     2.15290229e-21                180
                   8.45182591e-24                180                  1                  0     4.56196336e-23                180     1.49001237e-37                180
                   8.26046824e-22                180     6.78637039e-19                  0     1.73529633e-21                  0     4.51738152e-20                  0
                   6.80159118e-19                  0     1.23685542e-21                180     1.26690916e-21                180     3.53610933e-22                180
                   3.38044239e-21                180     3.42248442e-22                180     6.79941098e-19                  0     4.33430095e-21                180
                   4.30475401e-21                180     3.38044239e-21                180     8.96952398e-22                  0
                   8.83431858e-19                  0     1.40246357e-21                180     8.80260155e-19                  0     8.26046824e-22                180
                      0.333333333                180     2.37563439e-20                180     2.28213752e-20                  0     5.42257913e-19                180
                   1.81843359e-20                180        0.666666666                  0        0.666666666                  0     7.50207572e-20                180
                   7.84646754e-20                180     7.54365713e-20                180     1.57293945e-20                180     9.69722169e-21                180
                   9.67914975e-21                180     7.84646754e-20                180     8.00726315e-20                  0
                   7.11599331e-22                180     6.80390218e-19                  0     2.97304135e-22                180     6.78637039e-19                  0
                   2.37563439e-20                180        0.333333333                180     5.27531888e-19                180     4.15964607e-19                  0
                      0.666666666                  0      1.3075004e-20                180     2.11887551e-20                180     7.38613235e-21                180
                   1.54425593e-20                  0     7.29008687e-21                180        0.666666666                  0     6.61595999e-20                180
                   6.64318541e-20                180     1.54425593e-20                  0     9.23644085e-20                180
                   3.00529859e-21                180     1.82259489e-21                180     2.95169252e-21                  0     1.73529633e-21                  0
                   2.28213752e-20                  0     5.27531888e-19                180        0.999999999                180     6.21926332e-15                  0
                   5.19522275e-19                  0     7.83485886e-19                180     7.57313254e-19                  0     4.66984098e-22                  0
                    2.9668777e-19                  0     8.15732524e-22                180     4.21034999e-21                  0     3.74036444e-22                  0
                   7.63441521e-22                180      2.9668777e-19                  0     5.94526822e-19                180
                   3.99878692e-21                180     4.52624656e-20                180     3.94496291e-21                  0     4.51738152e-20                  0
                   5.42257913e-19                180     4.15964607e-19                  0     6.21926332e-15                  0        0.999999999                180
                   2.75020611e-19                  0     4.23745185e-19                  0     1.15458067e-19                  0     3.02430939e-22                  0
                   4.06535137e-19                  0     7.77932829e-22                180     6.93637007e-19                180     5.92008189e-22                  0
                   1.18685115e-21                180     4.06535137e-19                  0     8.14730637e-19                180
                   3.27814552e-22                180     6.79966642e-19                  0     6.89445668e-22                180     6.80159118e-19                  0
                   1.81843359e-20                180        0.666666666                  0     5.19522275e-19                  0     2.75020611e-19                  0
                      0.333333333                180     1.99150275e-20                180     1.70344841e-20                180     7.12516946e-21                180
                   6.03433997e-20                180     7.55267271e-21                180        0.666666666                  0     6.59156116e-20                180
                   6.66647693e-20                180     6.03433997e-20                180      5.9226091e-20                  0
                   8.82658121e-19                  0     9.99332864e-22                180     8.84012652e-19                  0     1.23685542e-21                180
                      0.666666666                  0      1.3075004e-20                180     7.83485886e-19                180     4.23745185e-19                  0
                   1.99150275e-20                180        0.333333333                180        0.666666666                  0     7.54138306e-20                180
                   3.10024927e-20                  0     7.51124473e-20                180     2.25490874e-20                180     9.99962394e-21                180
                   9.39966772e-21                180     3.10024927e-20                  0     1.38858954e-19                180
                   8.82795126e-19                  0     9.62715464e-22                180     8.83289503e-19                  0     1.26690916e-21                180
                      0.666666666                  0     2.11887551e-20                180     7.57313254e-19                  0     1.15458067e-19                  0
                   1.70344841e-20                180        0.666666666                  0        0.333333333                180     7.50734431e-20                180
                   2.93761932e-20                180     7.54953863e-20                180     1.92837751e-20                180     9.35163419e-21                180
                   1.00393486e-20                180     2.93761932e-20                180     1.81050449e-20                180
                   9.38544176e-22                180     3.42274601e-22                180     9.40715281e-22                180     3.53610933e-22                180
                   7.50207572e-20                180     7.38613235e-21                180     4.66984098e-22                  0     3.02430939e-22                  0
                   7.12516946e-21                180     7.54138306e-20                180     7.50734431e-20                180     9.81307787e-17                  0
                   6.67740924e-20                180                  1                  0      7.4478621e-21                180     5.03714813e-21                180
                   5.26348922e-21                180     6.67740924e-20                180     3.74225594e-20                180
                   3.38813179e-21                  0     2.50500282e-37                  0     3.38813179e-21                  0     8.11941891e-37                  0
                   2.16840434e-19                180     3.04338918e-35                  0     2.91379334e-19                  0      3.7947076e-19                  0
                   2.16840434e-19                  0     4.33680869e-19                180     1.35525272e-20                180     8.13151629e-20                180
                      0.333333333                180     1.08420217e-19                180     6.77626358e-21                180     1.08420217e-19                180
                   1.08420217e-19                180        0.666666666                  0        0.666666666                  0
                    9.3943104e-22                180     3.53547454e-22                180     9.38949716e-22                180     3.42248442e-22                180
                   7.54365713e-20                180     7.29008687e-21                180     8.15732524e-22                180     7.77932829e-22                180
                   7.55267271e-21                180     7.51124473e-20                180     7.54953863e-20                180                  1                  0
                   4.71642259e-20                180     1.21569621e-36                180     7.22844263e-21                180     5.26349441e-21                180
                    5.0372388e-21                180     4.71642259e-20                180     7.65104551e-20                180
