!Agilent Technologies,E5071C,MY46520295,B.13.20
!Date: Fri Feb 23 07:22:27 2024
!Data & Calibration Information:
!Freq	S11:SOLT2(ON)	S21:SOLT2(ON)	S12:SOLT2(ON)	S22:SOLT2(ON)
!PortZ  Port1:50+j0    Port2:50+j0
!Above PortZ is port z conversion or system Z0 setting when saving the data.
!When reading, reference impedance value at option line is always used.
# Hz S RI R 50
300000	2.220514e-003	1.738781e-003	9.992412e-001	4.111776e-003	1.002541e+000	5.737096e-005	-5.156030e-003	6.454196e-003
10298500	-2.312658e-003	-3.613251e-002	9.964741e-001	-3.960254e-002	9.974006e-001	-3.990866e-002	-2.203780e-003	-3.587459e-002
20297000	-6.363589e-003	-7.191519e-002	9.919621e-001	-7.923041e-002	9.932427e-001	-7.981871e-002	-7.759548e-003	-7.198791e-002
30295500	-1.471291e-002	-1.074810e-001	9.842050e-001	-1.180747e-001	9.854738e-001	-1.185639e-001	-1.461845e-002	-1.074587e-001
40294000	-2.596952e-002	-1.424110e-001	9.739283e-001	-1.563151e-001	9.755397e-001	-1.567140e-001	-2.424000e-002	-1.424794e-001
50292500	-3.918990e-002	-1.779907e-001	9.592730e-001	-1.957629e-001	9.602678e-001	-1.971857e-001	-3.946824e-002	-1.785914e-001
60291000	-5.697003e-002	-2.137068e-001	9.426099e-001	-2.354742e-001	9.436397e-001	-2.362906e-001	-5.512923e-002	-2.148190e-001
70289500	-7.962509e-002	-2.510229e-001	9.205252e-001	-2.751692e-001	9.207837e-001	-2.757160e-001	-7.625810e-002	-2.504014e-001
80288000	-1.067103e-001	-2.858456e-001	8.930618e-001	-3.141206e-001	8.941212e-001	-3.148341e-001	-1.020785e-001	-2.881003e-001
90286500	-1.395457e-001	-3.211666e-001	8.607677e-001	-3.526598e-001	8.614426e-001	-3.533884e-001	-1.335964e-001	-3.229731e-001
100285000	-1.779097e-001	-3.553502e-001	8.227156e-001	-3.908451e-001	8.235182e-001	-3.919173e-001	-1.726490e-001	-3.589458e-001
110283500	-2.234133e-001	-3.878955e-001	7.777664e-001	-4.271930e-001	7.782318e-001	-4.283114e-001	-2.180278e-001	-3.913053e-001
120282000	-2.795095e-001	-4.160897e-001	7.244066e-001	-4.603927e-001	7.250444e-001	-4.613101e-001	-2.693593e-001	-4.211056e-001
130280500	-3.416723e-001	-4.377669e-001	6.614247e-001	-4.877944e-001	6.620959e-001	-4.884145e-001	-3.318860e-001	-4.465978e-001
140279000	-4.129753e-001	-4.548723e-001	5.899476e-001	-5.078836e-001	5.904786e-001	-5.082640e-001	-4.032343e-001	-4.621781e-001
150277500	-4.929627e-001	-4.586183e-001	5.098590e-001	-5.167302e-001	5.101125e-001	-5.172828e-001	-4.827139e-001	-4.707502e-001
160276000	-5.800845e-001	-4.494669e-001	4.218533e-001	-5.103496e-001	4.221918e-001	-5.112092e-001	-5.711934e-001	-4.626539e-001
170274500	-6.734257e-001	-4.212975e-001	3.300526e-001	-4.868180e-001	3.300414e-001	-4.875840e-001	-6.624748e-001	-4.373456e-001
180273000	-7.647234e-001	-3.707726e-001	2.380457e-001	-4.419907e-001	2.380267e-001	-4.425600e-001	-7.548361e-001	-3.906342e-001
190271500	-8.482749e-001	-2.967457e-001	1.533416e-001	-3.739392e-001	1.534057e-001	-3.743065e-001	-8.403836e-001	-3.208442e-001
200270000	-9.164182e-001	-2.028996e-001	8.382341e-002	-2.845949e-001	8.380975e-002	-2.850423e-001	-9.103132e-001	-2.290564e-001
210268500	-9.619426e-001	-9.159110e-002	3.626332e-002	-1.791525e-001	3.620493e-002	-1.793379e-001	-9.592892e-001	-1.225549e-001
220267000	-9.802389e-001	2.602010e-002	1.560892e-002	-6.515150e-002	1.565800e-002	-6.516227e-002	-9.814653e-001	-4.957434e-003
230265500	-9.712994e-001	1.447512e-001	2.266851e-002	4.805214e-002	2.277599e-002	4.813961e-002	-9.744596e-001	1.106189e-001
240264000	-9.369780e-001	2.516231e-001	5.428736e-002	1.515463e-001	5.433779e-002	1.519114e-001	-9.457671e-001	2.187186e-001
250262500	-8.848020e-001	3.432195e-001	1.047899e-001	2.401566e-001	1.050016e-001	2.403898e-001	-8.965738e-001	3.110600e-001
260261000	-8.196985e-001	4.163653e-001	1.674350e-001	3.109298e-001	1.679801e-001	3.111254e-001	-8.345183e-001	3.867726e-001
270259500	-7.498469e-001	4.710904e-001	2.366819e-001	3.636772e-001	2.370469e-001	3.638202e-001	-7.666274e-001	4.447000e-001
280258000	-6.792768e-001	5.098957e-001	3.072074e-001	4.003803e-001	3.074094e-001	4.006655e-001	-6.966712e-001	4.842068e-001
290256500	-6.103659e-001	5.338473e-001	3.750089e-001	4.228547e-001	3.754521e-001	4.231831e-001	-6.293100e-001	5.112591e-001
300255000	-5.457403e-001	5.479521e-001	4.394896e-001	4.337185e-001	4.399001e-001	4.340848e-001	-5.658504e-001	5.272038e-001
310253500	-4.852683e-001	5.531819e-001	4.982031e-001	4.361997e-001	4.990583e-001	4.363345e-001	-5.073507e-001	5.335370e-001
320252000	-4.310638e-001	5.509356e-001	5.509610e-001	4.324403e-001	5.520930e-001	4.323422e-001	-4.535743e-001	5.345866e-001
330250500	-3.823421e-001	5.451764e-001	5.987862e-001	4.235381e-001	5.998237e-001	4.234292e-001	-4.046259e-001	5.294003e-001
340249000	-3.383717e-001	5.360820e-001	6.411807e-001	4.117538e-001	6.423653e-001	4.113385e-001	-3.619337e-001	5.211242e-001
350247500	-3.001672e-001	5.244575e-001	6.793763e-001	3.968888e-001	6.802790e-001	3.966845e-001	-3.235402e-001	5.103936e-001
360246000	-2.669626e-001	5.109554e-001	7.136278e-001	3.807632e-001	7.139488e-001	3.804009e-001	-2.893528e-001	4.979760e-001
370244500	-2.365475e-001	4.966607e-001	7.432851e-001	3.623737e-001	7.443307e-001	3.629540e-001	-2.588431e-001	4.847273e-001
380243000	-2.105214e-001	4.813429e-001	7.695732e-001	3.448237e-001	7.706586e-001	3.448008e-001	-2.325191e-001	4.714266e-001
390241500	-1.871911e-001	4.661292e-001	7.936421e-001	3.265064e-001	7.943620e-001	3.264927e-001	-2.083011e-001	4.577539e-001
400240000	-1.664026e-001	4.514905e-001	8.141857e-001	3.081095e-001	8.151665e-001	3.076686e-001	-1.859488e-001	4.431571e-001
410238500	-1.465182e-001	4.359210e-001	8.328976e-001	2.902239e-001	8.341110e-001	2.896651e-001	-1.661835e-001	4.279885e-001
420237000	-1.302223e-001	4.202588e-001	8.497214e-001	2.724756e-001	8.511788e-001	2.718027e-001	-1.478529e-001	4.137304e-001
430235500	-1.148876e-001	4.045017e-001	8.650399e-001	2.546787e-001	8.660259e-001	2.541557e-001	-1.320026e-001	3.989617e-001
440234000	-1.016534e-001	3.899478e-001	8.788671e-001	2.370218e-001	8.801623e-001	2.366821e-001	-1.176126e-001	3.853245e-001
450232500	-8.948308e-002	3.764125e-001	8.909443e-001	2.194271e-001	8.919301e-001	2.194203e-001	-1.051963e-001	3.718226e-001
460231000	-7.829776e-002	3.629595e-001	9.010818e-001	2.026391e-001	9.023638e-001	2.022882e-001	-9.403389e-002	3.588221e-001
470229500	-6.790663e-002	3.508171e-001	9.106053e-001	1.859831e-001	9.119975e-001	1.860517e-001	-8.326439e-002	3.468285e-001
480228000	-5.917851e-002	3.383713e-001	9.192552e-001	1.704792e-001	9.204320e-001	1.697413e-001	-7.389436e-002	3.351607e-001
490226500	-5.084793e-002	3.267213e-001	9.270120e-001	1.546522e-001	9.282187e-001	1.544630e-001	-6.516752e-002	3.232707e-001
500225000	-4.390814e-002	3.146395e-001	9.343706e-001	1.398308e-001	9.351044e-001	1.392934e-001	-5.707900e-002	3.118227e-001
510223500	-3.720356e-002	3.030206e-001	9.404313e-001	1.246708e-001	9.416970e-001	1.245408e-001	-4.990454e-002	3.003225e-001
520222000	-3.220455e-002	2.911363e-001	9.463244e-001	1.107173e-001	9.472961e-001	1.101201e-001	-4.379162e-002	2.888407e-001
530220500	-2.752079e-002	2.799458e-001	9.508536e-001	9.650994e-002	9.524295e-001	9.619098e-002	-3.746921e-002	2.781113e-001
540219000	-2.318236e-002	2.694876e-001	9.558143e-001	8.279448e-002	9.571277e-001	8.241124e-002	-3.181752e-002	2.680811e-001
550217500	-1.910857e-002	2.595283e-001	9.597442e-001	6.986023e-002	9.608487e-001	6.937047e-002	-2.693938e-002	2.578276e-001
560216000	-1.511082e-002	2.495387e-001	9.635182e-001	5.677689e-002	9.645026e-001	5.675302e-002	-2.166564e-002	2.483086e-001
570214500	-1.117514e-002	2.402725e-001	9.666158e-001	4.394852e-002	9.679602e-001	4.363335e-002	-1.705529e-002	2.389817e-001
580213000	-7.795190e-003	2.311303e-001	9.698599e-001	3.157419e-002	9.710013e-001	3.096730e-002	-1.315621e-002	2.297692e-001
590211500	-4.752603e-003	2.221846e-001	9.730860e-001	1.904058e-002	9.736288e-001	1.869260e-002	-9.438157e-003	2.208242e-001
600210000	-2.188577e-003	2.135920e-001	9.750807e-001	6.503546e-003	9.762101e-001	6.053106e-003	-6.666097e-003	2.124020e-001
610208500	-1.119946e-004	2.054990e-001	9.767494e-001	-5.291765e-003	9.780368e-001	-6.146843e-003	-4.220501e-003	2.043020e-001
620207000	1.738618e-003	1.975639e-001	9.783536e-001	-1.742703e-002	9.793110e-001	-1.777602e-002	-2.055062e-003	1.964262e-001
630205500	3.363012e-003	1.901618e-001	9.796074e-001	-2.876983e-002	9.809438e-001	-2.936497e-002	3.084099e-004	1.889181e-001
640204000	4.693725e-003	1.825559e-001	9.809229e-001	-4.041899e-002	9.818360e-001	-4.061457e-002	2.644527e-003	1.811887e-001
650202500	6.321908e-003	1.746108e-001	9.815781e-001	-5.051145e-002	9.829663e-001	-5.145366e-002	4.845705e-003	1.736750e-001
660201000	7.337021e-003	1.671586e-001	9.823748e-001	-6.136371e-002	9.837523e-001	-6.221062e-002	7.595508e-003	1.656143e-001
670199500	8.195027e-003	1.593599e-001	9.832386e-001	-7.175933e-002	9.840173e-001	-7.243295e-002	9.678846e-003	1.577372e-001
680198000	8.366911e-003	1.519179e-001	9.837689e-001	-8.241101e-002	9.847284e-001	-8.279996e-002	1.123485e-002	1.503271e-001
690196500	8.781245e-003	1.451256e-001	9.842572e-001	-9.281517e-002	9.851679e-001	-9.348570e-002	1.257679e-002	1.430691e-001
700195000	8.925616e-003	1.386379e-001	9.843242e-001	-1.024874e-001	9.855156e-001	-1.033088e-001	1.316594e-002	1.365909e-001
710193500	9.484364e-003	1.324618e-001	9.841883e-001	-1.129187e-001	9.852695e-001	-1.134608e-001	1.411061e-002	1.304728e-001
720192000	9.920660e-003	1.265175e-001	9.837393e-001	-1.229569e-001	9.849546e-001	-1.234401e-001	1.488045e-002	1.245882e-001
730190500	1.073702e-002	1.206581e-001	9.833641e-001	-1.323911e-001	9.846489e-001	-1.331628e-001	1.546381e-002	1.182994e-001
740189000	1.097661e-002	1.145979e-001	9.826453e-001	-1.419308e-001	9.840859e-001	-1.426487e-001	1.606597e-002	1.123373e-001
750187500	1.054118e-002	1.080705e-001	9.825292e-001	-1.511800e-001	9.834950e-001	-1.519463e-001	1.628264e-002	1.057332e-001
760186000	1.030057e-002	1.021616e-001	9.816667e-001	-1.609016e-001	9.827804e-001	-1.610840e-001	1.673237e-002	9.935894e-002
770184500	9.589478e-003	9.642676e-002	9.813309e-001	-1.697581e-001	9.825664e-001	-1.704855e-001	1.634314e-002	9.344727e-002
780183000	8.758502e-003	9.092211e-002	9.808793e-001	-1.788924e-001	9.816866e-001	-1.795193e-001	1.672563e-002	8.778131e-002
790181500	8.219424e-003	8.591805e-002	9.799195e-001	-1.882760e-001	9.811871e-001	-1.890468e-001	1.691012e-002	8.227370e-002
800180000	7.718556e-003	8.067848e-002	9.789597e-001	-1.974913e-001	9.800691e-001	-1.983197e-001	1.777510e-002	7.664903e-002
810178500	7.343676e-003	7.522884e-002	9.773004e-001	-2.062983e-001	9.783121e-001	-2.072339e-001	1.799249e-002	7.093753e-002
820177000	6.705258e-003	6.986512e-002	9.758823e-001	-2.153617e-001	9.767397e-001	-2.157146e-001	1.830648e-002	6.554926e-002
830175500	5.655623e-003	6.472423e-002	9.743931e-001	-2.239032e-001	9.755392e-001	-2.245765e-001	1.777172e-002	5.988250e-002
840174000	4.479182e-003	5.923130e-002	9.730104e-001	-2.322938e-001	9.737165e-001	-2.329765e-001	1.698172e-002	5.465274e-002
850172500	3.072206e-003	5.462850e-002	9.710677e-001	-2.407488e-001	9.721483e-001	-2.416319e-001	1.581104e-002	4.926940e-002
860171000	1.950268e-003	4.989161e-002	9.693791e-001	-2.491114e-001	9.703213e-001	-2.499148e-001	1.475583e-002	4.428312e-002
870169500	1.093619e-003	4.517672e-002	9.673715e-001	-2.571351e-001	9.681990e-001	-2.580936e-001	1.384470e-002	3.990818e-002
880168000	4.033168e-004	4.055214e-002	9.655311e-001	-2.651136e-001	9.667117e-001	-2.659076e-001	1.281848e-002	3.536045e-002
890166500	-4.047528e-004	3.619535e-002	9.640133e-001	-2.731020e-001	9.651375e-001	-2.738288e-001	1.211508e-002	3.037096e-002
900165000	-1.235320e-003	3.138510e-002	9.623670e-001	-2.813047e-001	9.636127e-001	-2.819033e-001	1.167551e-002	2.582480e-002
910163500	-2.737202e-003	2.669582e-002	9.613393e-001	-2.894405e-001	9.623042e-001	-2.904159e-001	1.096485e-002	2.075255e-002
920162000	-3.847855e-003	2.212543e-002	9.591962e-001	-2.981933e-001	9.605036e-001	-2.990118e-001	1.032488e-002	1.558674e-002
930160500	-6.177851e-003	1.782053e-002	9.572489e-001	-3.064596e-001	9.585572e-001	-3.075432e-001	9.119880e-003	1.082457e-002
940159000	-7.927377e-003	1.389022e-002	9.554636e-001	-3.151662e-001	9.559170e-001	-3.162422e-001	7.850128e-003	6.300761e-003
950157500	-1.018648e-002	1.045876e-002	9.524754e-001	-3.235682e-001	9.535830e-001	-3.242580e-001	6.737064e-003	2.189568e-003
960156000	-1.157060e-002	6.286311e-003	9.496926e-001	-3.309743e-001	9.509533e-001	-3.320682e-001	5.615302e-003	-1.821450e-003
970154500	-1.302012e-002	2.029449e-003	9.475780e-001	-3.384412e-001	9.483883e-001	-3.392233e-001	4.394788e-003	-6.464161e-003
980153000	-1.468650e-002	-2.408519e-003	9.448294e-001	-3.459924e-001	9.461288e-001	-3.468005e-001	2.641212e-003	-1.099376e-002
990151500	-1.619142e-002	-7.278135e-003	9.429972e-001	-3.539324e-001	9.437100e-001	-3.547672e-001	1.139830e-003	-1.555911e-002
1000150000	-1.780404e-002	-1.167603e-002	9.397174e-001	-3.619669e-001	9.403929e-001	-3.628479e-001	-1.183855e-003	-2.055028e-002
1010148500	-1.969045e-002	-1.611352e-002	9.367197e-001	-3.698023e-001	9.373690e-001	-3.708224e-001	-3.190613e-003	-2.488284e-002
1020147000	-2.149506e-002	-2.031222e-002	9.329972e-001	-3.769688e-001	9.341585e-001	-3.781353e-001	-5.340380e-003	-2.884290e-002
1030145500	-2.322124e-002	-2.391776e-002	9.306936e-001	-3.844106e-001	9.311460e-001	-3.854624e-001	-7.567139e-003	-3.277490e-002
1040144000	-2.556933e-002	-2.718161e-002	9.277353e-001	-3.913495e-001	9.284731e-001	-3.927900e-001	-9.005550e-003	-3.610725e-002
1050142500	-2.714760e-002	-3.025342e-002	9.253681e-001	-3.990380e-001	9.262755e-001	-4.000459e-001	-1.064713e-002	-3.981783e-002
1060141000	-2.904292e-002	-3.390949e-002	9.227540e-001	-4.064993e-001	9.237540e-001	-4.074076e-001	-1.190688e-002	-4.361584e-002
1070139500	-3.158744e-002	-3.736047e-002	9.206865e-001	-4.147102e-001	9.213696e-001	-4.157825e-001	-1.388953e-002	-4.797014e-002
1080138000	-3.419091e-002	-4.136466e-002	9.177349e-001	-4.233313e-001	9.186565e-001	-4.239759e-001	-1.582800e-002	-5.243640e-002
1090136500	-3.676256e-002	-4.553390e-002	9.138337e-001	-4.309397e-001	9.147205e-001	-4.320005e-001	-1.832042e-002	-5.645171e-002
1100135000	-3.980381e-002	-4.973760e-002	9.100829e-001	-4.389398e-001	9.112284e-001	-4.397145e-001	-2.146259e-002	-6.107486e-002
1110133500	-4.232348e-002	-5.387999e-002	9.066702e-001	-4.462908e-001	9.072239e-001	-4.473573e-001	-2.469651e-002	-6.464824e-002
1120132000	-4.462613e-002	-5.809619e-002	9.024886e-001	-4.537552e-001	9.033609e-001	-4.550142e-001	-2.766164e-002	-6.847942e-002
1130130500	-4.671279e-002	-6.194072e-002	8.987150e-001	-4.614768e-001	8.993143e-001	-4.623965e-001	-3.043964e-002	-7.221076e-002
1140129000	-4.898081e-002	-6.589148e-002	8.942297e-001	-4.689246e-001	8.950077e-001	-4.699687e-001	-3.341380e-002	-7.608166e-002
1150127500	-5.087974e-002	-7.029069e-002	8.898015e-001	-4.757477e-001	8.908808e-001	-4.769795e-001	-3.619377e-002	-7.998047e-002
1160126000	-5.337766e-002	-7.386077e-002	8.855682e-001	-4.835088e-001	8.861534e-001	-4.845824e-001	-3.931736e-002	-8.341906e-002
1170124500	-5.603312e-002	-7.745675e-002	8.814978e-001	-4.910146e-001	8.820796e-001	-4.918305e-001	-4.235158e-002	-8.651966e-002
1180123000	-5.949223e-002	-8.042475e-002	8.769026e-001	-4.980365e-001	8.779428e-001	-4.988062e-001	-4.522611e-002	-8.986787e-002
1190121500	-6.257470e-002	-8.301626e-002	8.723545e-001	-5.058279e-001	8.731898e-001	-5.067909e-001	-4.843593e-002	-9.291421e-002
1200120000	-6.556728e-002	-8.593488e-002	8.676551e-001	-5.129275e-001	8.686148e-001	-5.136617e-001	-5.136893e-002	-9.600530e-002
1210118500	-6.880630e-002	-8.925814e-002	8.635661e-001	-5.195182e-001	8.641685e-001	-5.206301e-001	-5.427057e-002	-9.970063e-002
1220117000	-7.176858e-002	-9.291428e-002	8.582884e-001	-5.262245e-001	8.592353e-001	-5.274136e-001	-5.726037e-002	-1.033360e-001
1230115500	-7.488638e-002	-9.722731e-002	8.538244e-001	-5.325366e-001	8.547146e-001	-5.334928e-001	-6.052342e-002	-1.077645e-001
1240114000	-7.808600e-002	-1.021353e-001	8.504154e-001	-5.385537e-001	8.509204e-001	-5.397103e-001	-6.465978e-002	-1.121419e-001
1250112500	-8.160566e-002	-1.069492e-001	8.464311e-001	-5.454189e-001	8.470939e-001	-5.466846e-001	-6.955719e-002	-1.163052e-001
1260111000	-8.543304e-002	-1.113214e-001	8.429483e-001	-5.533432e-001	8.434830e-001	-5.546775e-001	-7.482592e-002	-1.203210e-001
1270109500	-8.902850e-002	-1.150873e-001	8.378772e-001	-5.616234e-001	8.388162e-001	-5.631702e-001	-8.020255e-002	-1.236182e-001
1280108000	-9.239345e-002	-1.189148e-001	8.330166e-001	-5.703729e-001	8.335210e-001	-5.716021e-001	-8.561873e-002	-1.261236e-001
1290106500	-9.594889e-002	-1.219910e-001	8.267653e-001	-5.782627e-001	8.277592e-001	-5.796441e-001	-9.022478e-002	-1.286020e-001
1300105000	-9.903417e-002	-1.253033e-001	8.208395e-001	-5.865122e-001	8.217737e-001	-5.877478e-001	-9.492299e-002	-1.311808e-001
1310103500	-1.024222e-001	-1.289800e-001	8.140730e-001	-5.941173e-001	8.149638e-001	-5.949507e-001	-9.887252e-002	-1.342392e-001
1320102000	-1.061712e-001	-1.328483e-001	8.083255e-001	-6.011133e-001	8.089284e-001	-6.024152e-001	-1.030627e-001	-1.378687e-001
1330100500	-1.107970e-001	-1.373062e-001	8.020138e-001	-6.080418e-001	8.031532e-001	-6.095634e-001	-1.080915e-001	-1.419589e-001
1340099000	-1.158341e-001	-1.416943e-001	7.970016e-001	-6.156539e-001	7.974591e-001	-6.170863e-001	-1.138063e-001	-1.460983e-001
1350097500	-1.209741e-001	-1.454263e-001	7.910185e-001	-6.235455e-001	7.916434e-001	-6.248217e-001	-1.202720e-001	-1.499517e-001
1360096000	-1.261833e-001	-1.494700e-001	7.846331e-001	-6.316979e-001	7.847880e-001	-6.331009e-001	-1.267059e-001	-1.529116e-001
1370094500	-1.306141e-001	-1.536542e-001	7.771863e-001	-6.396654e-001	7.774402e-001	-6.408074e-001	-1.333784e-001	-1.549507e-001
1380093000	-1.351525e-001	-1.578863e-001	7.690733e-001	-6.472417e-001	7.691731e-001	-6.488649e-001	-1.400002e-001	-1.572279e-001
1390091500	-1.397963e-001	-1.626392e-001	7.611792e-001	-6.547525e-001	7.617805e-001	-6.556450e-001	-1.462386e-001	-1.589958e-001
1400090000	-1.448411e-001	-1.675868e-001	7.527418e-001	-6.617340e-001	7.533514e-001	-6.629267e-001	-1.531682e-001	-1.607949e-001
1410088500	-1.499800e-001	-1.717631e-001	7.448257e-001	-6.688417e-001	7.445984e-001	-6.698637e-001	-1.602958e-001	-1.630175e-001
1420087000	-1.560226e-001	-1.761806e-001	7.367735e-001	-6.754952e-001	7.371459e-001	-6.765401e-001	-1.679548e-001	-1.651435e-001
1430085500	-1.622878e-001	-1.801287e-001	7.288255e-001	-6.828778e-001	7.294457e-001	-6.839621e-001	-1.760521e-001	-1.674503e-001
1440084000	-1.689457e-001	-1.841813e-001	7.211792e-001	-6.906828e-001	7.214508e-001	-6.914905e-001	-1.848884e-001	-1.690542e-001
1450082500	-1.756897e-001	-1.882968e-001	7.124685e-001	-6.986042e-001	7.127643e-001	-6.998536e-001	-1.925359e-001	-1.715042e-001
1460081000	-1.823632e-001	-1.924840e-001	7.028241e-001	-7.063705e-001	7.032381e-001	-7.075326e-001	-2.009734e-001	-1.738478e-001
1470079500	-1.893429e-001	-1.974273e-001	6.931135e-001	-7.140681e-001	6.933597e-001	-7.153667e-001	-2.097546e-001	-1.765253e-001
1480078000	-1.971311e-001	-2.027574e-001	6.823117e-001	-7.215752e-001	6.823693e-001	-7.228527e-001	-2.187660e-001	-1.791230e-001
1490076500	-2.046865e-001	-2.080392e-001	6.718542e-001	-7.285009e-001	6.718101e-001	-7.297294e-001	-2.290049e-001	-1.813733e-001
1500075000	-2.128790e-001	-2.135323e-001	6.602889e-001	-7.354671e-001	6.603439e-001	-7.367896e-001	-2.399773e-001	-1.832443e-001
1510073500	-2.211377e-001	-2.183374e-001	6.488928e-001	-7.413704e-001	6.489602e-001	-7.426578e-001	-2.510562e-001	-1.843314e-001
1520072000	-2.299219e-001	-2.232395e-001	6.371377e-001	-7.477291e-001	6.375063e-001	-7.493331e-001	-2.628174e-001	-1.841603e-001
1530070500	-2.382090e-001	-2.283623e-001	6.253778e-001	-7.545029e-001	6.256461e-001	-7.556212e-001	-2.749265e-001	-1.831577e-001
1540069000	-2.471979e-001	-2.332529e-001	6.134462e-001	-7.608965e-001	6.133705e-001	-7.622254e-001	-2.869076e-001	-1.825963e-001
