!Agilent Technologies,E5071C,MY46520295,B.13.20
!Date: Fri Feb 23 07:18:03 2024
!Data & Calibration Information:
!Freq	S11:SOLT2(ON)	S21:SOLT2(ON)	S12:SOLT2(ON)	S22:SOLT2(ON)
!PortZ  Port1:50+j0    Port2:50+j0
!Above PortZ is port z conversion or system Z0 setting when saving the data.
!When reading, reference impedance value at option line is always used.
# Hz S RI R 50
300000	1.530077e-003	1.785158e-003	1.000691e+000	3.792313e-003	1.001292e+000	9.624234e-004	-7.046538e-003	5.405354e-003
10298500	2.287118e-004	-3.610430e-003	9.990342e-001	-8.692328e-003	1.000020e+000	-8.954164e-003	3.262716e-004	-3.608781e-003
20297000	-1.671318e-004	-6.985991e-003	9.986590e-001	-1.764261e-002	9.999955e-001	-1.793411e-002	-2.037674e-004	-7.285795e-003
30295500	-8.596866e-004	-1.021238e-002	9.983904e-001	-2.584668e-002	9.996132e-001	-2.652578e-002	-6.376799e-004	-1.037004e-002
40294000	-1.255390e-003	-1.330395e-002	9.979603e-001	-3.432559e-002	9.994665e-001	-3.453554e-002	-1.058335e-003	-1.355350e-002
50292500	-1.508556e-003	-1.664189e-002	9.974526e-001	-4.280533e-002	9.983198e-001	-4.377913e-002	-1.144258e-003	-1.675133e-002
60291000	-1.717711e-003	-2.020179e-002	9.973055e-001	-5.157268e-002	9.986326e-001	-5.202256e-002	-1.249483e-003	-1.987777e-002
70289500	-2.279013e-003	-2.348798e-002	9.965297e-001	-6.007463e-002	9.974501e-001	-6.005412e-002	-1.207816e-003	-2.351892e-002
80288000	-2.592825e-003	-2.685754e-002	9.953465e-001	-6.835220e-002	9.967337e-001	-6.826924e-002	-1.048242e-003	-2.703062e-002
90286500	-3.042187e-003	-3.056115e-002	9.946362e-001	-7.666157e-002	9.955501e-001	-7.719413e-002	-1.538006e-003	-3.052101e-002
100285000	-4.081322e-003	-3.383280e-002	9.942875e-001	-8.532758e-002	9.954733e-001	-8.602220e-002	-2.014775e-003	-3.385859e-002
110283500	-5.098082e-003	-3.682877e-002	9.937796e-001	-9.378431e-002	9.948920e-001	-9.457032e-002	-2.842080e-003	-3.708410e-002
120282000	-6.264036e-003	-3.968057e-002	9.929132e-001	-1.023498e-001	9.939892e-001	-1.031673e-001	-3.610095e-003	-3.993164e-002
130280500	-7.285204e-003	-4.266140e-002	9.913300e-001	-1.109581e-001	9.926999e-001	-1.110177e-001	-4.211260e-003	-4.279327e-002
140279000	-8.079233e-003	-4.539367e-002	9.905560e-001	-1.195182e-001	9.914259e-001	-1.198815e-001	-4.690983e-003	-4.582805e-002
150277500	-9.136773e-003	-4.888727e-002	9.893090e-001	-1.277124e-001	9.901453e-001	-1.278583e-001	-4.680441e-003	-4.936690e-002
160276000	-1.014513e-002	-5.263369e-002	9.880134e-001	-1.352954e-001	9.889991e-001	-1.361573e-001	-5.295501e-003	-5.301657e-002
170274500	-1.120157e-002	-5.613971e-002	9.869044e-001	-1.435560e-001	9.876240e-001	-1.444248e-001	-6.016634e-003	-5.664465e-002
180273000	-1.283786e-002	-5.962997e-002	9.857672e-001	-1.522655e-001	9.863917e-001	-1.531959e-001	-6.783442e-003	-6.029366e-002
190271500	-1.456414e-002	-6.226390e-002	9.838736e-001	-1.609696e-001	9.848691e-001	-1.614285e-001	-7.883279e-003	-6.346089e-002
200270000	-1.597701e-002	-6.518342e-002	9.819245e-001	-1.693175e-001	9.832638e-001	-1.699167e-001	-8.650152e-003	-6.630990e-002
210268500	-1.747910e-002	-6.765463e-002	9.804647e-001	-1.774711e-001	9.813713e-001	-1.782672e-001	-9.094508e-003	-6.937364e-002
220267000	-1.876581e-002	-7.020226e-002	9.788999e-001	-1.856017e-001	9.794418e-001	-1.861371e-001	-9.508723e-003	-7.210510e-002
230265500	-2.023644e-002	-7.325194e-002	9.765076e-001	-1.941667e-001	9.772753e-001	-1.950224e-001	-9.973998e-003	-7.515376e-002
240264000	-2.170784e-002	-7.612858e-002	9.745939e-001	-2.024586e-001	9.756868e-001	-2.031750e-001	-1.086409e-002	-7.820223e-002
250262500	-2.384202e-002	-7.908427e-002	9.728475e-001	-2.108844e-001	9.735317e-001	-2.116701e-001	-1.189265e-002	-8.161345e-002
260261000	-2.600210e-002	-8.198570e-002	9.704804e-001	-2.188482e-001	9.711944e-001	-2.199996e-001	-1.318238e-002	-8.496261e-002
270259500	-2.831286e-002	-8.486507e-002	9.686663e-001	-2.275752e-001	9.695072e-001	-2.283342e-001	-1.460497e-002	-8.781095e-002
280258000	-3.040783e-002	-8.755725e-002	9.665199e-001	-2.350660e-001	9.673679e-001	-2.355138e-001	-1.605057e-002	-9.075158e-002
290256500	-3.233831e-002	-9.018392e-002	9.641841e-001	-2.433064e-001	9.649556e-001	-2.439647e-001	-1.689311e-002	-9.391365e-002
300255000	-3.461425e-002	-9.277408e-002	9.621864e-001	-2.519270e-001	9.632579e-001	-2.526604e-001	-1.786325e-002	-9.681852e-002
310253500	-3.646402e-002	-9.547667e-002	9.592697e-001	-2.595688e-001	9.603087e-001	-2.608143e-001	-1.873890e-002	-1.000781e-001
320252000	-3.815324e-002	-9.803711e-002	9.565167e-001	-2.676403e-001	9.576990e-001	-2.685716e-001	-1.944656e-002	-1.032276e-001
330250500	-4.026270e-002	-1.009177e-001	9.539020e-001	-2.754909e-001	9.549338e-001	-2.769949e-001	-2.045153e-002	-1.063153e-001
340249000	-4.271956e-002	-1.031605e-001	9.511664e-001	-2.834199e-001	9.518989e-001	-2.846946e-001	-2.182037e-002	-1.094868e-001
350247500	-4.549003e-002	-1.055006e-001	9.479376e-001	-2.914270e-001	9.491268e-001	-2.923882e-001	-2.308536e-002	-1.124494e-001
360246000	-4.832243e-002	-1.074566e-001	9.458169e-001	-2.994270e-001	9.462799e-001	-3.001499e-001	-2.483821e-002	-1.150098e-001
370244500	-5.099203e-002	-1.092239e-001	9.423738e-001	-3.076403e-001	9.435151e-001	-3.081802e-001	-2.600056e-002	-1.173357e-001
380243000	-5.355843e-002	-1.112673e-001	9.398510e-001	-3.152215e-001	9.406455e-001	-3.162138e-001	-2.728548e-002	-1.200891e-001
390241500	-5.634614e-002	-1.134945e-001	9.372365e-001	-3.236262e-001	9.378759e-001	-3.242628e-001	-2.854463e-002	-1.228060e-001
400240000	-5.878716e-002	-1.158488e-001	9.339476e-001	-3.317084e-001	9.345664e-001	-3.323773e-001	-2.985768e-002	-1.257567e-001
410238500	-6.116260e-002	-1.181786e-001	9.305295e-001	-3.386620e-001	9.307871e-001	-3.398475e-001	-3.120980e-002	-1.290549e-001
420237000	-6.409074e-002	-1.207808e-001	9.271755e-001	-3.459874e-001	9.276098e-001	-3.473891e-001	-3.228105e-002	-1.325239e-001
430235500	-6.713363e-002	-1.228532e-001	9.239795e-001	-3.533049e-001	9.246956e-001	-3.543401e-001	-3.384111e-002	-1.351370e-001
440234000	-6.964140e-002	-1.245914e-001	9.210401e-001	-3.612632e-001	9.219429e-001	-3.621780e-001	-3.550191e-002	-1.379781e-001
450232500	-7.291350e-002	-1.259251e-001	9.174857e-001	-3.692282e-001	9.181967e-001	-3.702668e-001	-3.710861e-002	-1.402997e-001
460231000	-7.560179e-002	-1.276002e-001	9.134059e-001	-3.766584e-001	9.143311e-001	-3.778186e-001	-3.811890e-002	-1.425307e-001
470229500	-7.840896e-002	-1.286542e-001	9.098418e-001	-3.848772e-001	9.108022e-001	-3.857448e-001	-3.957338e-002	-1.450089e-001
480228000	-8.134145e-002	-1.302037e-001	9.061055e-001	-3.924299e-001	9.068708e-001	-3.930323e-001	-4.126393e-002	-1.476507e-001
490226500	-8.465660e-002	-1.319296e-001	9.019685e-001	-3.998037e-001	9.026828e-001	-4.007950e-001	-4.303757e-002	-1.504992e-001
500225000	-8.826025e-002	-1.335854e-001	8.982491e-001	-4.069826e-001	8.989759e-001	-4.079326e-001	-4.471295e-002	-1.532270e-001
510223500	-9.154451e-002	-1.349127e-001	8.941838e-001	-4.146153e-001	8.951211e-001	-4.153710e-001	-4.676123e-002	-1.557475e-001
520222000	-9.507819e-002	-1.366289e-001	8.911462e-001	-4.214660e-001	8.914393e-001	-4.224642e-001	-4.844491e-002	-1.584124e-001
530220500	-9.821316e-002	-1.376227e-001	8.864280e-001	-4.282893e-001	8.873756e-001	-4.295425e-001	-5.027370e-002	-1.608524e-001
540219000	-1.013496e-001	-1.389433e-001	8.829891e-001	-4.356179e-001	8.835433e-001	-4.367684e-001	-5.204100e-002	-1.631311e-001
550217500	-1.039562e-001	-1.401016e-001	8.792550e-001	-4.424976e-001	8.796826e-001	-4.435895e-001	-5.319546e-002	-1.656811e-001
560216000	-1.068103e-001	-1.415102e-001	8.749446e-001	-4.494431e-001	8.756346e-001	-4.500718e-001	-5.455853e-002	-1.681528e-001
570214500	-1.098250e-001	-1.426981e-001	8.704206e-001	-4.567830e-001	8.716710e-001	-4.575030e-001	-5.617150e-002	-1.705950e-001
580213000	-1.131279e-001	-1.438513e-001	8.667754e-001	-4.639571e-001	8.674738e-001	-4.651167e-001	-5.793539e-002	-1.731507e-001
590211500	-1.169434e-001	-1.447506e-001	8.626199e-001	-4.709516e-001	8.632856e-001	-4.720380e-001	-6.000023e-002	-1.755346e-001
600210000	-1.208096e-001	-1.451007e-001	8.580414e-001	-4.784787e-001	8.585275e-001	-4.796539e-001	-6.193240e-002	-1.776700e-001
610208500	-1.242277e-001	-1.454481e-001	8.534632e-001	-4.856752e-001	8.540317e-001	-4.867047e-001	-6.437476e-002	-1.797414e-001
620207000	-1.279942e-001	-1.459036e-001	8.487092e-001	-4.927276e-001	8.491070e-001	-4.935852e-001	-6.660720e-002	-1.816154e-001
630205500	-1.319136e-001	-1.465418e-001	8.442970e-001	-4.993723e-001	8.451741e-001	-5.007664e-001	-6.834346e-002	-1.840212e-001
640204000	-1.350207e-001	-1.472253e-001	8.395273e-001	-5.068973e-001	8.398842e-001	-5.076013e-001	-7.032929e-002	-1.862597e-001
650202500	-1.381973e-001	-1.481806e-001	8.347447e-001	-5.131000e-001	8.355786e-001	-5.141543e-001	-7.221809e-002	-1.887856e-001
660201000	-1.418711e-001	-1.490274e-001	8.300044e-001	-5.200776e-001	8.309373e-001	-5.209838e-001	-7.403703e-002	-1.912516e-001
670199500	-1.453135e-001	-1.500027e-001	8.252393e-001	-5.265010e-001	8.257336e-001	-5.274389e-001	-7.615560e-002	-1.939296e-001
680198000	-1.489702e-001	-1.501888e-001	8.204638e-001	-5.331462e-001	8.211266e-001	-5.341365e-001	-7.840541e-002	-1.961968e-001
690196500	-1.524593e-001	-1.500797e-001	8.156813e-001	-5.395592e-001	8.162840e-001	-5.410202e-001	-8.031347e-002	-1.980340e-001
700195000	-1.560739e-001	-1.500331e-001	8.111584e-001	-5.458704e-001	8.116507e-001	-5.472230e-001	-8.208577e-002	-1.995475e-001
710193500	-1.596301e-001	-1.498006e-001	8.058362e-001	-5.525609e-001	8.064162e-001	-5.538387e-001	-8.409463e-002	-2.013086e-001
720192000	-1.631355e-001	-1.495579e-001	8.007114e-001	-5.593375e-001	8.012549e-001	-5.606139e-001	-8.590482e-002	-2.030782e-001
730190500	-1.668164e-001	-1.493684e-001	7.955093e-001	-5.656783e-001	7.959771e-001	-5.669555e-001	-8.854170e-002	-2.053742e-001
740189000	-1.704262e-001	-1.494574e-001	7.901181e-001	-5.720771e-001	7.909603e-001	-5.729891e-001	-9.060977e-002	-2.073429e-001
750187500	-1.747216e-001	-1.494600e-001	7.852043e-001	-5.786355e-001	7.856058e-001	-5.796581e-001	-9.322151e-002	-2.098458e-001
760186000	-1.786418e-001	-1.496077e-001	7.795448e-001	-5.848821e-001	7.804463e-001	-5.856783e-001	-9.598937e-002	-2.119051e-001
770184500	-1.822690e-001	-1.495426e-001	7.747670e-001	-5.912528e-001	7.752254e-001	-5.922248e-001	-9.884206e-002	-2.135359e-001
780183000	-1.863862e-001	-1.492673e-001	7.698027e-001	-5.975667e-001	7.701030e-001	-5.985261e-001	-1.008356e-001	-2.154769e-001
790181500	-1.901254e-001	-1.489876e-001	7.643385e-001	-6.042593e-001	7.651817e-001	-6.053450e-001	-1.030220e-001	-2.171350e-001
800180000	-1.936397e-001	-1.481232e-001	7.587293e-001	-6.104979e-001	7.591150e-001	-6.115644e-001	-1.046575e-001	-2.191300e-001
810178500	-1.971639e-001	-1.475704e-001	7.529132e-001	-6.163672e-001	7.534273e-001	-6.175416e-001	-1.065854e-001	-2.209251e-001
820177000	-2.010372e-001	-1.466013e-001	7.469069e-001	-6.226829e-001	7.475533e-001	-6.234682e-001	-1.088995e-001	-2.227829e-001
830175500	-2.048009e-001	-1.455492e-001	7.416877e-001	-6.284158e-001	7.422031e-001	-6.294362e-001	-1.113072e-001	-2.247747e-001
840174000	-2.087313e-001	-1.443904e-001	7.357279e-001	-6.341747e-001	7.360303e-001	-6.351297e-001	-1.139381e-001	-2.259557e-001
850172500	-2.125943e-001	-1.430602e-001	7.300368e-001	-6.400344e-001	7.304686e-001	-6.412358e-001	-1.167358e-001	-2.273298e-001
860171000	-2.162888e-001	-1.418391e-001	7.238481e-001	-6.456308e-001	7.245046e-001	-6.468518e-001	-1.193331e-001	-2.287642e-001
870169500	-2.197945e-001	-1.408454e-001	7.177949e-001	-6.513151e-001	7.181935e-001	-6.527785e-001	-1.218723e-001	-2.303265e-001
880168000	-2.232836e-001	-1.404000e-001	7.119844e-001	-6.570213e-001	7.124068e-001	-6.581798e-001	-1.241021e-001	-2.318609e-001
890166500	-2.268504e-001	-1.398148e-001	7.063792e-001	-6.623509e-001	7.068118e-001	-6.638368e-001	-1.265839e-001	-2.337106e-001
900165000	-2.308033e-001	-1.394760e-001	7.005508e-001	-6.684720e-001	7.014244e-001	-6.694470e-001	-1.293355e-001	-2.355086e-001
910163500	-2.349029e-001	-1.384219e-001	6.955135e-001	-6.743471e-001	6.955414e-001	-6.753236e-001	-1.319124e-001	-2.375276e-001
920162000	-2.393648e-001	-1.371936e-001	6.887893e-001	-6.803093e-001	6.895568e-001	-6.815249e-001	-1.344569e-001	-2.388960e-001
930160500	-2.435485e-001	-1.353408e-001	6.832066e-001	-6.864941e-001	6.836820e-001	-6.878999e-001	-1.372718e-001	-2.403351e-001
940159000	-2.474318e-001	-1.327815e-001	6.770240e-001	-6.924339e-001	6.771034e-001	-6.935665e-001	-1.396582e-001	-2.416177e-001
950157500	-2.512951e-001	-1.298271e-001	6.701825e-001	-6.982404e-001	6.707968e-001	-6.995210e-001	-1.419578e-001	-2.426383e-001
960156000	-2.544949e-001	-1.279542e-001	6.637823e-001	-7.033601e-001	6.642109e-001	-7.047017e-001	-1.439885e-001	-2.439523e-001
970154500	-2.579663e-001	-1.263805e-001	6.576377e-001	-7.084998e-001	6.578633e-001	-7.095669e-001	-1.464462e-001	-2.456213e-001
980153000	-2.620050e-001	-1.246009e-001	6.511749e-001	-7.135285e-001	6.517943e-001	-7.147637e-001	-1.493142e-001	-2.477012e-001
990151500	-2.659963e-001	-1.229856e-001	6.448709e-001	-7.190309e-001	6.451659e-001	-7.202231e-001	-1.522557e-001	-2.493901e-001
1000150000	-2.698593e-001	-1.212547e-001	6.378229e-001	-7.245021e-001	6.376415e-001	-7.255917e-001	-1.560224e-001	-2.509126e-001
1010148500	-2.737721e-001	-1.192665e-001	6.306271e-001	-7.296367e-001	6.308660e-001	-7.308284e-001	-1.592907e-001	-2.519480e-001
1020147000	-2.769361e-001	-1.169129e-001	6.235106e-001	-7.338426e-001	6.238021e-001	-7.352186e-001	-1.621181e-001	-2.526251e-001
1030145500	-2.805337e-001	-1.152048e-001	6.173523e-001	-7.389385e-001	6.171390e-001	-7.400511e-001	-1.650136e-001	-2.535273e-001
1040144000	-2.838492e-001	-1.125841e-001	6.111768e-001	-7.436610e-001	6.110400e-001	-7.448269e-001	-1.672154e-001	-2.545176e-001
1050142500	-2.869212e-001	-1.102288e-001	6.049506e-001	-7.492601e-001	6.052017e-001	-7.501647e-001	-1.695024e-001	-2.554453e-001
1060141000	-2.905999e-001	-1.078889e-001	5.983972e-001	-7.543463e-001	5.988180e-001	-7.553676e-001	-1.719623e-001	-2.566680e-001
1070139500	-2.943390e-001	-1.051859e-001	5.923200e-001	-7.600857e-001	5.923288e-001	-7.612461e-001	-1.746806e-001	-2.582857e-001
1080138000	-2.984023e-001	-1.024994e-001	5.848928e-001	-7.661753e-001	5.855039e-001	-7.670892e-001	-1.779949e-001	-2.597351e-001
1090136500	-3.024157e-001	-9.954822e-002	5.772490e-001	-7.712874e-001	5.773416e-001	-7.721379e-001	-1.812997e-001	-2.607997e-001
1100135000	-3.063337e-001	-9.680019e-002	5.699443e-001	-7.754282e-001	5.699159e-001	-7.767622e-001	-1.848467e-001	-2.622957e-001
1110133500	-3.099089e-001	-9.393784e-002	5.622057e-001	-7.801527e-001	5.623747e-001	-7.815331e-001	-1.882463e-001	-2.631931e-001
1120132000	-3.137078e-001	-9.133250e-002	5.544438e-001	-7.844775e-001	5.547604e-001	-7.857935e-001	-1.914417e-001	-2.638722e-001
1130130500	-3.172082e-001	-8.854105e-002	5.472008e-001	-7.889653e-001	5.472889e-001	-7.901238e-001	-1.946249e-001	-2.651655e-001
1140129000	-3.205221e-001	-8.580321e-002	5.395344e-001	-7.933546e-001	5.396435e-001	-7.944894e-001	-1.982558e-001	-2.661192e-001
1150127500	-3.241557e-001	-8.332079e-002	5.317869e-001	-7.971073e-001	5.319313e-001	-7.980874e-001	-2.017842e-001	-2.666003e-001
1160126000	-3.275891e-001	-8.022275e-002	5.241396e-001	-8.016918e-001	5.239748e-001	-8.025171e-001	-2.052906e-001	-2.665359e-001
1170124500	-3.312438e-001	-7.639049e-002	5.164490e-001	-8.061575e-001	5.169234e-001	-8.071844e-001	-2.083498e-001	-2.666299e-001
1180123000	-3.347519e-001	-7.246407e-002	5.088795e-001	-8.101076e-001	5.091146e-001	-8.109517e-001	-2.105371e-001	-2.672090e-001
1190121500	-3.374956e-001	-6.837904e-002	5.009138e-001	-8.146916e-001	5.012268e-001	-8.159685e-001	-2.137997e-001	-2.674988e-001
1200120000	-3.405891e-001	-6.449490e-002	4.933978e-001	-8.181998e-001	4.934314e-001	-8.196303e-001	-2.161873e-001	-2.680916e-001
1210118500	-3.433153e-001	-6.102517e-002	4.861575e-001	-8.221052e-001	4.858791e-001	-8.236395e-001	-2.190202e-001	-2.692249e-001
1220117000	-3.462928e-001	-5.745297e-002	4.780084e-001	-8.255194e-001	4.779065e-001	-8.268827e-001	-2.215664e-001	-2.704284e-001
1230115500	-3.496248e-001	-5.391417e-002	4.706832e-001	-8.285596e-001	4.705034e-001	-8.298430e-001	-2.246653e-001	-2.719927e-001
1240114000	-3.535200e-001	-5.082588e-002	4.638974e-001	-8.322547e-001	4.639688e-001	-8.327936e-001	-2.278892e-001	-2.732563e-001
1250112500	-3.568022e-001	-4.775246e-002	4.569348e-001	-8.357115e-001	4.568567e-001	-8.370887e-001	-2.324608e-001	-2.749722e-001
1260111000	-3.607697e-001	-4.393114e-002	4.503950e-001	-8.403289e-001	4.501854e-001	-8.415107e-001	-2.368353e-001	-2.760247e-001
1270109500	-3.637817e-001	-3.968597e-002	4.418411e-001	-8.447954e-001	4.420871e-001	-8.464872e-001	-2.418896e-001	-2.766249e-001
1280108000	-3.669511e-001	-3.612225e-002	4.337249e-001	-8.496858e-001	4.333916e-001	-8.510584e-001	-2.460158e-001	-2.761390e-001
1290106500	-3.694670e-001	-3.200850e-002	4.248667e-001	-8.537836e-001	4.250934e-001	-8.554189e-001	-2.500910e-001	-2.762216e-001
1300105000	-3.720574e-001	-2.786340e-002	4.155295e-001	-8.580086e-001	4.157181e-001	-8.595423e-001	-2.538768e-001	-2.759933e-001
1310103500	-3.746397e-001	-2.388403e-002	4.062110e-001	-8.614345e-001	4.063457e-001	-8.623726e-001	-2.571126e-001	-2.760788e-001
1320102000	-3.776030e-001	-2.016671e-002	3.981745e-001	-8.646389e-001	3.979668e-001	-8.655303e-001	-2.606699e-001	-2.770713e-001
1330100500	-3.806431e-001	-1.594212e-002	3.897017e-001	-8.672430e-001	3.896364e-001	-8.687538e-001	-2.649567e-001	-2.780474e-001
1340099000	-3.838211e-001	-1.134062e-002	3.823678e-001	-8.709921e-001	3.818961e-001	-8.722105e-001	-2.691123e-001	-2.791063e-001
1350097500	-3.871352e-001	-6.944603e-003	3.741099e-001	-8.745998e-001	3.740357e-001	-8.760080e-001	-2.742386e-001	-2.795071e-001
1360096000	-3.903238e-001	-2.005548e-003	3.654140e-001	-8.783064e-001	3.648042e-001	-8.797952e-001	-2.786956e-001	-2.790173e-001
1370094500	-3.928544e-001	2.444853e-003	3.560879e-001	-8.815745e-001	3.555396e-001	-8.830133e-001	-2.831067e-001	-2.779054e-001
1380093000	-3.960455e-001	6.988111e-003	3.463825e-001	-8.844557e-001	3.455262e-001	-8.861506e-001	-2.877788e-001	-2.771604e-001
1390091500	-3.987058e-001	1.146820e-002	3.367812e-001	-8.873717e-001	3.364401e-001	-8.880564e-001	-2.912861e-001	-2.759701e-001
1400090000	-4.021259e-001	1.554522e-002	3.270494e-001	-8.893960e-001	3.263653e-001	-8.904175e-001	-2.957821e-001	-2.744846e-001
1410088500	-4.049212e-001	2.107375e-002	3.178064e-001	-8.914561e-001	3.172682e-001	-8.923050e-001	-2.999057e-001	-2.738174e-001
1420087000	-4.081690e-001	2.539457e-002	3.092968e-001	-8.932994e-001	3.088783e-001	-8.945857e-001	-3.040187e-001	-2.729868e-001
1430085500	-4.110831e-001	3.048306e-002	3.008915e-001	-8.961125e-001	3.008377e-001	-8.971270e-001	-3.085746e-001	-2.723100e-001
1440084000	-4.139676e-001	3.597005e-002	2.924349e-001	-8.996341e-001	2.921219e-001	-9.003054e-001	-3.131773e-001	-2.713509e-001
1450082500	-4.161437e-001	4.075799e-002	2.827230e-001	-9.022950e-001	2.824441e-001	-9.036152e-001	-3.174550e-001	-2.715448e-001
1460081000	-4.181005e-001	4.613163e-002	2.731270e-001	-9.047756e-001	2.730148e-001	-9.061684e-001	-3.220384e-001	-2.713154e-001
1470079500	-4.202531e-001	5.098456e-002	2.635470e-001	-9.071988e-001	2.629791e-001	-9.082027e-001	-3.269926e-001	-2.717346e-001
1480078000	-4.230470e-001	5.564521e-002	2.534162e-001	-9.091102e-001	2.527320e-001	-9.101309e-001	-3.318650e-001	-2.715732e-001
1490076500	-4.255680e-001	6.049188e-002	2.439228e-001	-9.103937e-001	2.432831e-001	-9.115925e-001	-3.376190e-001	-2.712377e-001
1500075000	-4.279433e-001	6.576894e-002	2.337475e-001	-9.118297e-001	2.335305e-001	-9.131563e-001	-3.432198e-001	-2.699568e-001
1510073500	-4.306196e-001	7.125312e-002	2.246619e-001	-9.127180e-001	2.246160e-001	-9.139641e-001	-3.481650e-001	-2.682968e-001
1520072000	-4.328652e-001	7.628573e-002	2.154669e-001	-9.142509e-001	2.152917e-001	-9.154688e-001	-3.534588e-001	-2.664355e-001
