!Agilent Technologies,E5071C,MY46520295,B.13.20
!Date: Wed Mar 06 06:46:55 2024
!Data & Calibration Information:
!Freq	S11:SOLT2(ON)	S21:SOLT2(ON)	S12:SOLT2(ON)	S22:SOLT2(ON)
!PortZ  Port1:50+j0    Port2:50+j0
!Above PortZ is port z conversion or system Z0 setting when saving the data.
!When reading, reference impedance value at option line is always used.
# Hz S RI R 50
300000	6.002341e-001	4.624409e-001	-2.917917e+001	3.268495e+001	3.072630e-003	-6.259540e-005	9.854875e-001	6.412124e-001
10298500	4.917269e-001	-6.251412e-002	-3.633627e+001	2.877041e+000	1.002419e-003	1.435280e-003	8.018573e-001	8.005761e-002
20297000	5.161866e-001	-1.315246e-001	-3.297846e+001	5.572440e+000	1.104853e-003	3.189760e-003	7.773227e-001	8.285704e-003
30295500	5.191737e-001	-2.102438e-001	-3.259550e+001	8.712071e+000	1.167981e-003	5.785880e-003	8.756042e-001	-3.086833e-002
40294000	4.991212e-001	-2.708025e-001	-2.949546e+001	1.142255e+001	4.069894e-003	7.667432e-003	8.629469e-001	-1.673331e-001
50292500	4.546843e-001	-2.805251e-001	-2.667202e+001	1.152905e+001	5.555154e-003	5.489500e-003	7.158139e-001	-1.622208e-001
60291000	4.196915e-001	-3.115490e-001	-2.582668e+001	1.254403e+001	4.373461e-003	6.258983e-003	7.289451e-001	-1.122494e-001
70289500	3.969107e-001	-3.526794e-001	-2.411009e+001	1.312251e+001	4.370865e-003	7.679303e-003	7.421390e-001	-1.196212e-001
80288000	3.626079e-001	-3.943160e-001	-2.315407e+001	1.395567e+001	4.744184e-003	8.533999e-003	7.479709e-001	-1.343725e-001
90286500	3.548168e-001	-4.302371e-001	-2.229357e+001	1.433790e+001	5.043450e-003	9.729350e-003	7.484716e-001	-1.556411e-001
100285000	3.958172e-001	-4.514129e-001	-2.026272e+001	1.340155e+001	5.364941e-003	1.082767e-002	7.464126e-001	-1.699849e-001
110283500	3.615930e-001	-4.664666e-001	-1.900577e+001	1.391994e+001	6.834614e-003	1.172131e-002	7.347073e-001	-1.956181e-001
120282000	2.953504e-001	-4.689037e-001	-1.782990e+001	1.473811e+001	8.029615e-003	1.247010e-002	7.242327e-001	-2.154031e-001
130280500	2.496571e-001	-4.636203e-001	-1.682558e+001	1.515363e+001	8.546628e-003	1.111552e-002	6.924414e-001	-2.327243e-001
140279000	2.433023e-001	-4.757042e-001	-1.545686e+001	1.492636e+001	7.492468e-003	1.192104e-002	6.861104e-001	-2.305450e-001
150277500	2.255883e-001	-4.879422e-001	-1.446893e+001	1.486011e+001	7.802876e-003	1.323279e-002	6.805003e-001	-2.431143e-001
160276000	2.147508e-001	-5.133871e-001	-1.389648e+001	1.450791e+001	8.417233e-003	1.412378e-002	6.708179e-001	-2.569922e-001
170274500	2.055746e-001	-5.260824e-001	-1.316048e+001	1.424457e+001	9.245376e-003	1.492725e-002	6.565986e-001	-2.691947e-001
180273000	1.900923e-001	-5.316782e-001	-1.232366e+001	1.402392e+001	1.003047e-002	1.520533e-002	6.427159e-001	-2.769747e-001
190271500	1.761107e-001	-5.407225e-001	-1.164121e+001	1.380001e+001	1.082882e-002	1.603417e-002	6.331977e-001	-2.830282e-001
200270000	1.735913e-001	-5.496371e-001	-1.094539e+001	1.323140e+001	1.138005e-002	1.652778e-002	6.200675e-001	-2.900892e-001
210268500	1.355600e-001	-5.609088e-001	-1.062934e+001	1.340341e+001	1.170866e-002	1.716398e-002	6.141979e-001	-2.987902e-001
220267000	9.578341e-002	-5.436525e-001	-9.829793e+000	1.371486e+001	1.301009e-002	1.685527e-002	5.963198e-001	-3.165716e-001
230265500	8.064905e-002	-5.318533e-001	-8.969567e+000	1.359163e+001	1.250198e-002	1.643030e-002	5.751298e-001	-3.127237e-001
240264000	5.780788e-002	-5.420621e-001	-8.635377e+000	1.339016e+001	1.305348e-002	1.716689e-002	5.661159e-001	-3.132573e-001
250262500	4.862330e-002	-5.508140e-001	-8.251101e+000	1.307314e+001	1.370094e-002	1.757603e-002	5.543824e-001	-3.165081e-001
260261000	4.911991e-002	-5.634052e-001	-7.881246e+000	1.261151e+001	1.356828e-002	1.787594e-002	5.478108e-001	-3.162500e-001
270259500	3.701823e-002	-5.695810e-001	-7.518500e+000	1.231839e+001	1.466077e-002	1.876023e-002	5.378748e-001	-3.249935e-001
280258000	2.672999e-002	-5.657031e-001	-7.034777e+000	1.203195e+001	1.517246e-002	1.864598e-002	5.248931e-001	-3.255034e-001
290256500	-2.202759e-003	-5.571790e-001	-6.619960e+000	1.211254e+001	1.588133e-002	1.906765e-002	5.163545e-001	-3.266972e-001
300255000	-2.832684e-002	-5.489680e-001	-6.198928e+000	1.213361e+001	1.584168e-002	1.930257e-002	5.069608e-001	-3.280570e-001
310253500	-3.258758e-002	-5.444051e-001	-5.756935e+000	1.186342e+001	1.672793e-002	1.925930e-002	4.990952e-001	-3.294467e-001
320252000	-3.902339e-002	-5.577609e-001	-5.623534e+000	1.152021e+001	1.680300e-002	1.952692e-002	4.915965e-001	-3.311473e-001
330250500	-5.873869e-002	-5.568633e-001	-5.372586e+000	1.141752e+001	1.710370e-002	1.952208e-002	4.843471e-001	-3.322663e-001
340249000	-7.136948e-002	-5.475718e-001	-4.971576e+000	1.126688e+001	1.747709e-002	1.973287e-002	4.776632e-001	-3.350036e-001
350247500	-8.289142e-002	-5.422772e-001	-4.672593e+000	1.108809e+001	1.834628e-002	2.013094e-002	4.671673e-001	-3.389409e-001
360246000	-9.708401e-002	-5.413070e-001	-4.435530e+000	1.094884e+001	1.845971e-002	1.989224e-002	4.567814e-001	-3.348057e-001
370244500	-1.104939e-001	-5.398698e-001	-4.215761e+000	1.079824e+001	1.868263e-002	2.035419e-002	4.523281e-001	-3.339960e-001
380243000	-1.324500e-001	-5.342409e-001	-3.992522e+000	1.077203e+001	1.896478e-002	2.084945e-002	4.474205e-001	-3.352192e-001
390241500	-1.427634e-001	-5.224409e-001	-3.643057e+000	1.062598e+001	1.928549e-002	2.091430e-002	4.386588e-001	-3.366060e-001
400240000	-1.531473e-001	-5.198582e-001	-3.430088e+000	1.044996e+001	1.994586e-002	2.136294e-002	4.326168e-001	-3.364055e-001
410238500	-1.656081e-001	-5.171533e-001	-3.262021e+000	1.031623e+001	1.999458e-002	2.145116e-002	4.255690e-001	-3.369403e-001
420237000	-1.688273e-001	-5.156835e-001	-3.047251e+000	1.008393e+001	2.035202e-002	2.135062e-002	4.200353e-001	-3.366817e-001
430235500	-1.739634e-001	-5.163474e-001	-2.884697e+000	9.860787e+000	2.042419e-002	2.141386e-002	4.145547e-001	-3.353108e-001
440234000	-1.860005e-001	-5.095518e-001	-2.701395e+000	9.761792e+000	2.078806e-002	2.157135e-002	4.102416e-001	-3.352802e-001
450232500	-1.995402e-001	-4.991196e-001	-2.477112e+000	9.706006e+000	2.076579e-002	2.148422e-002	4.058659e-001	-3.358104e-001
460231000	-2.179751e-001	-4.819708e-001	-2.225496e+000	9.710464e+000	2.121560e-002	2.231941e-002	4.013024e-001	-3.357406e-001
470229500	-2.267005e-001	-4.704953e-001	-1.997140e+000	9.589810e+000	2.146947e-002	2.198452e-002	3.978556e-001	-3.353158e-001
480228000	-2.295702e-001	-4.744030e-001	-1.899083e+000	9.354748e+000	2.232743e-002	2.219790e-002	3.924862e-001	-3.359962e-001
490226500	-2.394724e-001	-4.797242e-001	-1.851415e+000	9.197645e+000	2.238614e-002	2.234209e-002	3.874896e-001	-3.362670e-001
500225000	-2.459359e-001	-4.739058e-001	-1.712596e+000	9.044643e+000	2.254800e-002	2.261179e-002	3.835513e-001	-3.348189e-001
510223500	-2.534477e-001	-4.670257e-001	-1.544300e+000	8.927943e+000	2.276700e-002	2.275209e-002	3.786778e-001	-3.358601e-001
520222000	-2.627044e-001	-4.599258e-001	-1.411157e+000	8.826327e+000	2.300607e-002	2.291906e-002	3.754213e-001	-3.346827e-001
530220500	-2.693126e-001	-4.523651e-001	-1.255162e+000	8.712183e+000	2.327754e-002	2.321748e-002	3.724655e-001	-3.347466e-001
540219000	-2.757082e-001	-4.467361e-001	-1.134755e+000	8.592302e+000	2.365304e-002	2.354282e-002	3.709319e-001	-3.349178e-001
550217500	-2.805404e-001	-4.403805e-001	-1.013167e+000	8.465491e+000	2.400578e-002	2.323906e-002	3.685258e-001	-3.353017e-001
560216000	-2.859566e-001	-4.338933e-001	-8.887209e-001	8.354020e+000	2.426385e-002	2.375806e-002	3.651119e-001	-3.371080e-001
570214500	-2.938440e-001	-4.304370e-001	-8.183941e-001	8.266096e+000	2.497110e-002	2.401805e-002	3.609215e-001	-3.383102e-001
580213000	-3.023217e-001	-4.258598e-001	-7.140193e-001	8.183009e+000	2.484070e-002	2.392488e-002	3.567099e-001	-3.384777e-001
590211500	-3.099732e-001	-4.214035e-001	-6.080330e-001	8.077401e+000	2.461578e-002	2.443792e-002	3.526660e-001	-3.377159e-001
600210000	-3.176213e-001	-4.149161e-001	-5.094960e-001	7.988581e+000	2.531688e-002	2.432942e-002	3.494968e-001	-3.372849e-001
610208500	-3.267919e-001	-4.031919e-001	-3.722199e-001	7.932677e+000	2.540139e-002	2.443132e-002	3.467683e-001	-3.371438e-001
620207000	-3.336573e-001	-3.880475e-001	-2.132493e-001	7.864250e+000	2.538430e-002	2.496372e-002	3.437242e-001	-3.370815e-001
630205500	-3.385821e-001	-3.777263e-001	-9.897451e-002	7.783581e+000	2.567251e-002	2.506153e-002	3.420468e-001	-3.375199e-001
640204000	-3.411910e-001	-3.755737e-001	-2.026586e-002	7.656942e+000	2.578174e-002	2.553807e-002	3.398109e-001	-3.387644e-001
650202500	-3.441021e-001	-3.783170e-001	1.562721e-002	7.522411e+000	2.630825e-002	2.567078e-002	3.379928e-001	-3.388664e-001
660201000	-3.481525e-001	-3.731841e-001	9.516923e-002	7.416843e+000	2.638819e-002	2.561648e-002	3.359622e-001	-3.403937e-001
670199500	-3.518988e-001	-3.652191e-001	1.903965e-001	7.326694e+000	2.694462e-002	2.579083e-002	3.331483e-001	-3.416801e-001
680198000	-3.564987e-001	-3.561192e-001	2.855217e-001	7.248464e+000	2.712118e-002	2.586489e-002	3.310129e-001	-3.421515e-001
690196500	-3.617331e-001	-3.486416e-001	3.760287e-001	7.184671e+000	2.765019e-002	2.597002e-002	3.281872e-001	-3.437558e-001
700195000	-3.656201e-001	-3.411446e-001	4.508461e-001	7.085633e+000	2.758723e-002	2.653293e-002	3.257599e-001	-3.438398e-001
710193500	-3.690287e-001	-3.367597e-001	5.117386e-001	7.001869e+000	2.787235e-002	2.655759e-002	3.226696e-001	-3.446116e-001
720192000	-3.725058e-001	-3.319333e-001	5.734093e-001	6.912056e+000	2.834659e-002	2.695391e-002	3.203793e-001	-3.449532e-001
730190500	-3.777350e-001	-3.268325e-001	6.333911e-001	6.830630e+000	2.829141e-002	2.672726e-002	3.175723e-001	-3.454764e-001
740189000	-3.817842e-001	-3.214909e-001	6.894850e-001	6.747013e+000	2.861929e-002	2.720797e-002	3.143452e-001	-3.459959e-001
750187500	-3.843962e-001	-3.165412e-001	7.600870e-001	6.657132e+000	2.903466e-002	2.722987e-002	3.118141e-001	-3.469250e-001
760186000	-3.854508e-001	-3.124276e-001	8.178983e-001	6.560799e+000	2.924368e-002	2.776112e-002	3.099661e-001	-3.466453e-001
770184500	-3.873173e-001	-3.062263e-001	8.902942e-001	6.471547e+000	2.928707e-002	2.776832e-002	3.076316e-001	-3.470582e-001
780183000	-3.900605e-001	-2.953971e-001	9.760081e-001	6.420832e+000	2.985802e-002	2.785406e-002	3.062161e-001	-3.485403e-001
790181500	-3.926621e-001	-2.845576e-001	1.061255e+000	6.369755e+000	3.018679e-002	2.853999e-002	3.052827e-001	-3.492934e-001
800180000	-3.959651e-001	-2.771176e-001	1.126238e+000	6.305207e+000	3.037810e-002	2.837342e-002	3.035785e-001	-3.510241e-001
810178500	-3.976916e-001	-2.746011e-001	1.163861e+000	6.220492e+000	3.079519e-002	2.847698e-002	3.011139e-001	-3.526913e-001
820177000	-4.003232e-001	-2.713396e-001	1.192284e+000	6.135787e+000	3.077861e-002	2.877683e-002	2.981941e-001	-3.538795e-001
830175500	-4.030562e-001	-2.662281e-001	1.238598e+000	6.064814e+000	3.112169e-002	2.885979e-002	2.965095e-001	-3.544710e-001
840174000	-4.054250e-001	-2.600982e-001	1.292660e+000	5.996949e+000	3.102595e-002	2.891367e-002	2.930595e-001	-3.551249e-001
850172500	-4.075857e-001	-2.530850e-001	1.343039e+000	5.933445e+000	3.186620e-002	2.952977e-002	2.911356e-001	-3.554483e-001
860171000	-4.105987e-001	-2.479555e-001	1.391646e+000	5.868947e+000	3.147712e-002	2.993857e-002	2.888904e-001	-3.560477e-001
870169500	-4.107309e-001	-2.435972e-001	1.439112e+000	5.785734e+000	3.223057e-002	2.975745e-002	2.867612e-001	-3.566596e-001
880168000	-4.123094e-001	-2.393077e-001	1.485592e+000	5.711431e+000	3.279789e-002	2.988220e-002	2.853131e-001	-3.578699e-001
890166500	-4.133093e-001	-2.337275e-001	1.531576e+000	5.635158e+000	3.280605e-002	2.993242e-002	2.826244e-001	-3.583384e-001
900165000	-4.148208e-001	-2.291323e-001	1.565646e+000	5.567388e+000	3.299941e-002	2.976276e-002	2.816156e-001	-3.596159e-001
910163500	-4.164308e-001	-2.239770e-001	1.602993e+000	5.505143e+000	3.335226e-002	3.058271e-002	2.799354e-001	-3.614413e-001
920162000	-4.182501e-001	-2.196069e-001	1.637094e+000	5.443282e+000	3.368857e-002	3.067590e-002	2.777268e-001	-3.624324e-001
930160500	-4.195258e-001	-2.148909e-001	1.675064e+000	5.372718e+000	3.410474e-002	3.069166e-002	2.754278e-001	-3.636872e-001
940159000	-4.205298e-001	-2.093853e-001	1.710594e+000	5.316013e+000	3.443792e-002	3.099989e-002	2.729052e-001	-3.641483e-001
950157500	-4.206098e-001	-2.018160e-001	1.755515e+000	5.260315e+000	3.454743e-002	3.113835e-002	2.714433e-001	-3.646986e-001
960156000	-4.214053e-001	-1.952379e-001	1.789591e+000	5.204966e+000	3.460192e-002	3.121092e-002	2.692041e-001	-3.653049e-001
970154500	-4.228985e-001	-1.899971e-001	1.828518e+000	5.144043e+000	3.490382e-002	3.152964e-002	2.675531e-001	-3.659449e-001
980153000	-4.235615e-001	-1.877675e-001	1.843963e+000	5.078878e+000	3.522644e-002	3.198540e-002	2.662475e-001	-3.664789e-001
990151500	-4.244786e-001	-1.836445e-001	1.877604e+000	5.013094e+000	3.568559e-002	3.216622e-002	2.644644e-001	-3.676568e-001
1000150000	-4.253515e-001	-1.788885e-001	1.911093e+000	4.949667e+000	3.596431e-002	3.202580e-002	2.631642e-001	-3.689436e-001
1010148500	-4.255114e-001	-1.744426e-001	1.937261e+000	4.897701e+000	3.611377e-002	3.266042e-002	2.617387e-001	-3.700038e-001
1020147000	-4.260226e-001	-1.692486e-001	1.969351e+000	4.843660e+000	3.647670e-002	3.303911e-002	2.602892e-001	-3.711045e-001
1030145500	-4.262582e-001	-1.651508e-001	1.996247e+000	4.789176e+000	3.661834e-002	3.285457e-002	2.587326e-001	-3.724404e-001
1040144000	-4.269216e-001	-1.619037e-001	2.015651e+000	4.729320e+000	3.714891e-002	3.320017e-002	2.569810e-001	-3.737291e-001
1050142500	-4.276128e-001	-1.584051e-001	2.037954e+000	4.684957e+000	3.773996e-002	3.333222e-002	2.561796e-001	-3.750174e-001
1060141000	-4.272023e-001	-1.535875e-001	2.059826e+000	4.628121e+000	3.839489e-002	3.393794e-002	2.544478e-001	-3.771617e-001
1070139500	-4.282423e-001	-1.496050e-001	2.085019e+000	4.582284e+000	3.802920e-002	3.387230e-002	2.525200e-001	-3.775363e-001
1080138000	-4.287200e-001	-1.436629e-001	2.117153e+000	4.533602e+000	3.848193e-002	3.406450e-002	2.505600e-001	-3.783832e-001
1090136500	-4.283067e-001	-1.399125e-001	2.137002e+000	4.483911e+000	3.889282e-002	3.392841e-002	2.493695e-001	-3.805485e-001
1100135000	-4.273352e-001	-1.337200e-001	2.180628e+000	4.444542e+000	3.922038e-002	3.485263e-002	2.481298e-001	-3.826112e-001
1110133500	-4.257606e-001	-1.292829e-001	2.209376e+000	4.391959e+000	3.976010e-002	3.470496e-002	2.449310e-001	-3.841400e-001
1120132000	-4.250644e-001	-1.247404e-001	2.238184e+000	4.340974e+000	3.972089e-002	3.479973e-002	2.423294e-001	-3.858210e-001
1130130500	-4.258110e-001	-1.205970e-001	2.262777e+000	4.289015e+000	4.039956e-002	3.532230e-002	2.405214e-001	-3.873481e-001
1140129000	-4.265442e-001	-1.185051e-001	2.276478e+000	4.240774e+000	4.106856e-002	3.541689e-002	2.379752e-001	-3.880031e-001
1150127500	-4.277082e-001	-1.156615e-001	2.297240e+000	4.190620e+000	4.147145e-002	3.557303e-002	2.358246e-001	-3.897120e-001
1160126000	-4.278884e-001	-1.114847e-001	2.321095e+000	4.146492e+000	4.145706e-002	3.571855e-002	2.337843e-001	-3.903436e-001
1170124500	-4.277129e-001	-1.065319e-001	2.345840e+000	4.099530e+000	4.210784e-002	3.571741e-002	2.317771e-001	-3.916007e-001
1180123000	-4.280229e-001	-1.020733e-001	2.375953e+000	4.056620e+000	4.267903e-002	3.602042e-002	2.301312e-001	-3.926898e-001
1190121500	-4.271112e-001	-9.763642e-002	2.394831e+000	4.007052e+000	4.269020e-002	3.610116e-002	2.277254e-001	-3.939378e-001
1200120000	-4.264907e-001	-9.277571e-002	2.412307e+000	3.957353e+000	4.297254e-002	3.624611e-002	2.256933e-001	-3.951598e-001
1210118500	-4.254245e-001	-8.875063e-002	2.433760e+000	3.906338e+000	4.352970e-002	3.645340e-002	2.229680e-001	-3.968023e-001
1220117000	-4.237209e-001	-8.533513e-002	2.449238e+000	3.857514e+000	4.370012e-002	3.668185e-002	2.204946e-001	-3.970053e-001
1230115500	-4.228124e-001	-8.204930e-002	2.461599e+000	3.802407e+000	4.437044e-002	3.654730e-002	2.179284e-001	-3.972000e-001
1240114000	-4.215938e-001	-7.889458e-002	2.476367e+000	3.751804e+000	4.445766e-002	3.691461e-002	2.152741e-001	-3.982994e-001
1250112500	-4.202982e-001	-7.563195e-002	2.487005e+000	3.704089e+000	4.481844e-002	3.673509e-002	2.139818e-001	-3.979732e-001
1260111000	-4.198017e-001	-7.361571e-002	2.494679e+000	3.661917e+000	4.523702e-002	3.688300e-002	2.128235e-001	-3.984581e-001
1270109500	-4.184397e-001	-7.091668e-002	2.505170e+000	3.621233e+000	4.538694e-002	3.747166e-002	2.113139e-001	-3.999791e-001
1280108000	-4.180176e-001	-6.768547e-002	2.518087e+000	3.579256e+000	4.582675e-002	3.741463e-002	2.089299e-001	-4.014650e-001
1290106500	-4.175990e-001	-6.440212e-002	2.533409e+000	3.541228e+000	4.635026e-002	3.749238e-002	2.074003e-001	-4.033515e-001
1300105000	-4.173420e-001	-6.144019e-002	2.541557e+000	3.503767e+000	4.633028e-002	3.788866e-002	2.050839e-001	-4.039754e-001
1310103500	-4.173717e-001	-5.858926e-002	2.553489e+000	3.462538e+000	4.701048e-002	3.800590e-002	2.024446e-001	-4.051082e-001
1320102000	-4.163159e-001	-5.544404e-002	2.569696e+000	3.425385e+000	4.698771e-002	3.835752e-002	2.004422e-001	-4.050525e-001
1330100500	-4.150567e-001	-5.279627e-002	2.583574e+000	3.381170e+000	4.783985e-002	3.854623e-002	1.981599e-001	-4.056952e-001
1340099000	-4.121881e-001	-4.995982e-002	2.594447e+000	3.333980e+000	4.813423e-002	3.869448e-002	1.966905e-001	-4.056606e-001
1350097500	-4.109741e-001	-4.839842e-002	2.604968e+000	3.294857e+000	4.861340e-002	3.873919e-002	1.951237e-001	-4.054200e-001
1360096000	-4.100214e-001	-4.706776e-002	2.606078e+000	3.257655e+000	4.898135e-002	3.967843e-002	1.947442e-001	-4.068990e-001
1370094500	-4.088178e-001	-4.522715e-002	2.607895e+000	3.218957e+000	4.951511e-002	3.955402e-002	1.937476e-001	-4.082186e-001
1380093000	-4.095232e-001	-4.179809e-002	2.619870e+000	3.184054e+000	5.029942e-002	3.974229e-002	1.913534e-001	-4.090048e-001
1390091500	-4.099015e-001	-3.985594e-002	2.626973e+000	3.154437e+000	5.032172e-002	4.013012e-002	1.899603e-001	-4.104955e-001
1400090000	-4.104288e-001	-3.622208e-002	2.641402e+000	3.124409e+000	5.112603e-002	4.035575e-002	1.875111e-001	-4.112074e-001
1410088500	-4.104861e-001	-3.181747e-002	2.656773e+000	3.091084e+000	5.147374e-002	4.011994e-002	1.851905e-001	-4.116950e-001
1420087000	-4.093828e-001	-2.966947e-002	2.667184e+000	3.053098e+000	5.181900e-002	3.991366e-002	1.832300e-001	-4.119043e-001
1430085500	-4.085130e-001	-2.739386e-002	2.677878e+000	3.021371e+000	5.212826e-002	4.061830e-002	1.820647e-001	-4.116777e-001
1440084000	-4.071137e-001	-2.349065e-002	2.692568e+000	2.981312e+000	5.279123e-002	4.076580e-002	1.800563e-001	-4.127126e-001
1450082500	-4.045148e-001	-2.264721e-002	2.694728e+000	2.945443e+000	5.258385e-002	4.101081e-002	1.794280e-001	-4.132265e-001
1460081000	-4.026295e-001	-2.048765e-002	2.704536e+000	2.902263e+000	5.341745e-002	4.141420e-002	1.780573e-001	-4.141152e-001
1470079500	-4.009528e-001	-1.918683e-002	2.706204e+000	2.866616e+000	5.397807e-002	4.143457e-002	1.773060e-001	-4.148192e-001
1480078000	-4.006635e-001	-1.792897e-002	2.710882e+000	2.841279e+000	5.494512e-002	4.185937e-002	1.761722e-001	-4.173818e-001
1490076500	-3.986059e-001	-1.722813e-002	2.714029e+000	2.808375e+000	5.505891e-002	4.174508e-002	1.751292e-001	-4.177462e-001
1500075000	-3.979321e-001	-1.593466e-002	2.723875e+000	2.781479e+000	5.567444e-002	4.154884e-002	1.743175e-001	-4.196122e-001
1510073500	-3.974675e-001	-1.341418e-002	2.738548e+000	2.753501e+000	5.590778e-002	4.193072e-002	1.719696e-001	-4.217314e-001
1520072000	-3.962069e-001	-1.112308e-002	2.754183e+000	2.728177e+000	5.689197e-002	4.240032e-002	1.707595e-001	-4.245941e-001
1530070500	-3.965347e-001	-9.047121e-003	2.767543e+000	2.697660e+000	5.741244e-002	4.244776e-002	1.673562e-001	-4.265343e-001
1540069000	-3.966310e-001	-6.242749e-003	2.786998e+000	2.665288e+000	5.765800e-002	4.250477e-002	1.634657e-001	-4.287613e-001
1550067500	-3.952702e-001	-4.660523e-003	2.801665e+000	2.624021e+000	5.852187e-002	4.244930e-002	1.589372e-001	-4.293751e-001
