!Agilent Technologies,E5071C,MY46520292,B.13.20
!Date: Sun Dec 10 03:20:33 2023
!Data & Calibration Information:
!Freq	S11:SOLT2(ON)	S21:SOLT2(ON)	S12:SOLT2(ON)	S22:SOLT2(ON)
!PortZ  Port1:50+j0    Port2:50+j0
!Above PortZ is port z conversion or system Z0 setting when saving the data.
!When reading, reference impedance value at option line is always used.
# Hz S dB R 50
2000000000	-6.043798e+000	1.367904e+001	-4.574148e+001	-2.998171e+001	-3.524770e+001	4.483526e-001	4.081584e+000	6.464641e+001
2010000000	-6.380790e+000	1.078127e+001	-4.517908e+001	-2.224343e+001	-3.570252e+001	2.861654e+000	3.221667e+000	6.815527e+001
2020000000	-6.696344e+000	8.517479e+000	-4.414591e+001	-2.217987e+001	-3.598201e+001	4.696338e-001	2.333500e+000	6.992072e+001
2030000000	-6.948446e+000	6.884062e+000	-4.334175e+001	-2.691163e+001	-3.639216e+001	-2.877581e+000	1.455857e+000	7.021127e+001
2040000000	-7.115415e+000	5.926189e+000	-4.333254e+001	-3.348968e+001	-3.671461e+001	-8.553041e+000	5.882233e-001	6.926152e+001
2050000000	-7.175280e+000	5.681252e+000	-4.362096e+001	-4.014310e+001	-3.756606e+001	-1.373267e+001	-2.559235e-001	6.734907e+001
2060000000	-7.148122e+000	5.774895e+000	-4.448053e+001	-4.700570e+001	-3.851003e+001	-2.001943e+001	-1.045394e+000	6.457982e+001
2070000000	-7.014399e+000	6.485763e+000	-4.531251e+001	-4.710662e+001	-3.907256e+001	-2.315235e+001	-1.796367e+000	6.123599e+001
2080000000	-6.793466e+000	7.740104e+000	-4.621676e+001	-4.610546e+001	-3.965911e+001	-2.524546e+001	-2.493236e+000	5.745841e+001
2090000000	-6.505062e+000	9.384645e+000	-4.656838e+001	-4.166990e+001	-3.999816e+001	-2.647841e+001	-3.118277e+000	5.325600e+001
2100000000	-6.168401e+000	1.120328e+001	-4.654336e+001	-3.526621e+001	-3.998964e+001	-2.691084e+001	-3.648390e+000	4.863830e+001
2110000000	-5.799757e+000	1.296764e+001	-4.562402e+001	-3.191626e+001	-3.979269e+001	-2.827629e+001	-4.050405e+000	4.356085e+001
2120000000	-5.388090e+000	1.446736e+001	-4.436981e+001	-3.280184e+001	-3.939862e+001	-3.241918e+001	-4.322637e+000	3.814885e+001
2130000000	-4.934855e+000	1.545322e+001	-4.352745e+001	-3.875525e+001	-3.911716e+001	-3.656678e+001	-4.427857e+000	3.256955e+001
2140000000	-4.433814e+000	1.554005e+001	-4.301054e+001	-4.586457e+001	-3.919914e+001	-4.301438e+001	-4.366072e+000	2.700244e+001
2150000000	-3.898479e+000	1.438129e+001	-4.260512e+001	-5.244300e+001	-3.941583e+001	-4.923967e+001	-4.152207e+000	2.182655e+001
2160000000	-3.411738e+000	1.194247e+001	-4.282229e+001	-5.924937e+001	-4.007482e+001	-5.366933e+001	-3.844236e+000	1.683254e+001
2170000000	-3.006103e+000	7.947506e+000	-4.304936e+001	-6.561001e+001	-4.052925e+001	-5.635066e+001	-3.469832e+000	1.252993e+001
2180000000	-2.743494e+000	2.673129e+000	-4.321367e+001	-6.803299e+001	-4.106556e+001	-5.974045e+001	-3.077933e+000	9.029434e+000
2190000000	-2.687827e+000	-3.263337e+000	-4.316560e+001	-7.142352e+001	-4.162978e+001	-5.850321e+001	-2.708625e+000	6.188137e+000
2200000000	-2.847279e+000	-8.815713e+000	-4.273368e+001	-7.503346e+001	-4.112704e+001	-6.033947e+001	-2.419680e+000	3.763791e+000
2210000000	-3.173149e+000	-1.368938e+001	-4.232149e+001	-8.032498e+001	-4.070553e+001	-6.586573e+001	-2.176877e+000	1.854339e+000
2220000000	-3.598713e+000	-1.748823e+001	-4.208314e+001	-8.972078e+001	-4.042074e+001	-7.532890e+001	-1.981867e+000	3.144444e-001
2230000000	-4.053419e+000	-2.019385e+001	-4.223623e+001	-9.961433e+001	-4.070240e+001	-8.518386e+001	-1.827869e+000	-9.327285e-001
2240000000	-4.488989e+000	-2.199536e+001	-4.249326e+001	-1.082209e+002	-4.118996e+001	-9.418397e+001	-1.696053e+000	-1.976325e+000
2250000000	-4.886702e+000	-2.321382e+001	-4.343076e+001	-1.154838e+002	-4.166665e+001	-1.028202e+002	-1.569284e+000	-2.965338e+000
2260000000	-5.208104e+000	-2.394390e+001	-4.441457e+001	-1.232029e+002	-4.223423e+001	-1.077789e+002	-1.461925e+000	-3.871863e+000
2270000000	-5.439518e+000	-2.449312e+001	-4.542999e+001	-1.227430e+002	-4.249513e+001	-1.111154e+002	-1.352339e+000	-4.864614e+000
2280000000	-5.581840e+000	-2.499597e+001	-4.581928e+001	-1.223267e+002	-4.219952e+001	-1.138970e+002	-1.251733e+000	-6.014335e+000
2290000000	-5.619868e+000	-2.548796e+001	-4.605129e+001	-1.204220e+002	-4.172305e+001	-1.184753e+002	-1.168011e+000	-7.371634e+000
2300000000	-5.538861e+000	-2.595427e+001	-4.559011e+001	-1.174524e+002	-4.093186e+001	-1.229838e+002	-1.110860e+000	-8.866464e+000
2310000000	-5.333172e+000	-2.636700e+001	-4.442629e+001	-1.183128e+002	-4.009674e+001	-1.307338e+002	-1.079711e+000	-1.037273e+001
2320000000	-5.025257e+000	-2.671021e+001	-4.306946e+001	-1.232061e+002	-3.922387e+001	-1.399270e+002	-1.089020e+000	-1.195658e+001
2330000000	-4.625610e+000	-2.704021e+001	-4.201518e+001	-1.299103e+002	-3.852830e+001	-1.495150e+002	-1.137675e+000	-1.354964e+001
2340000000	-4.152427e+000	-2.739259e+001	-4.104497e+001	-1.393521e+002	-3.809851e+001	-1.588924e+002	-1.222092e+000	-1.513419e+001
2350000000	-3.631791e+000	-2.791313e+001	-4.069782e+001	-1.499545e+002	-3.797930e+001	-1.678809e+002	-1.331292e+000	-1.675499e+001
2360000000	-3.076697e+000	-2.878357e+001	-4.058660e+001	-1.582136e+002	-3.827960e+001	-1.732821e+002	-1.460230e+000	-1.840713e+001
2370000000	-2.524946e+000	-3.022805e+001	-4.052448e+001	-1.645493e+002	-3.810126e+001	-1.767241e+002	-1.596712e+000	-2.024478e+001
2380000000	-2.017691e+000	-3.244085e+001	-4.030728e+001	-1.679506e+002	-3.768015e+001	-1.774824e+002	-1.738377e+000	-2.237234e+001
2390000000	-1.587546e+000	-3.552126e+001	-3.961393e+001	-1.707785e+002	-3.672069e+001	-1.782565e+002	-1.860734e+000	-2.497722e+001
2400000000	-1.288536e+000	-3.941996e+001	-3.869742e+001	-1.730419e+002	-3.570260e+001	1.778861e+002	-1.956336e+000	-2.812694e+001
2410000000	-1.140633e+000	-4.394393e+001	-3.738716e+001	-1.769388e+002	-3.463437e+001	1.732633e+002	-1.967157e+000	-3.180189e+001
2420000000	-1.178702e+000	-4.869232e+001	-3.603053e+001	1.748306e+002	-3.352131e+001	1.666263e+002	-1.902907e+000	-3.593719e+001
2430000000	-1.374148e+000	-5.324458e+001	-3.488026e+001	1.653624e+002	-3.273021e+001	1.603499e+002	-1.744487e+000	-4.031672e+001
2440000000	-1.692331e+000	-5.722915e+001	-3.418077e+001	1.540006e+002	-3.201967e+001	1.527175e+002	-1.489323e+000	-4.470289e+001
2450000000	-2.087617e+000	-6.046170e+001	-3.402955e+001	1.425373e+002	-3.162325e+001	1.462183e+002	-1.159733e+000	-4.882842e+001
2460000000	-2.498807e+000	-6.285568e+001	-3.417816e+001	1.337768e+002	-3.116038e+001	1.420143e+002	-7.723167e-001	-5.242969e+001
2470000000	-2.895673e+000	-6.455712e+001	-3.477587e+001	1.287636e+002	-3.060521e+001	1.383248e+002	-3.658705e-001	-5.534124e+001
2480000000	-3.249011e+000	-6.563659e+001	-3.517588e+001	1.285663e+002	-2.995340e+001	1.354938e+002	4.064702e-002	-5.751889e+001
2490000000	-3.542984e+000	-6.629980e+001	-3.506233e+001	1.314536e+002	-2.919141e+001	1.335397e+002	4.205603e-001	-5.898058e+001
2500000000	-3.764212e+000	-6.674589e+001	-3.424668e+001	1.351789e+002	-2.837127e+001	1.316770e+002	7.657690e-001	-5.978292e+001
2510000000	-3.902847e+000	-6.719859e+001	-3.283882e+001	1.367939e+002	-2.740742e+001	1.298176e+002	1.060097e+000	-6.016017e+001
2520000000	-3.938867e+000	-6.780615e+001	-3.130254e+001	1.353544e+002	-2.642443e+001	1.279079e+002	1.297848e+000	-6.021672e+001
2530000000	-3.873139e+000	-6.876317e+001	-2.978655e+001	1.310835e+002	-2.548702e+001	1.252397e+002	1.472370e+000	-6.021554e+001
2540000000	-3.692993e+000	-7.023387e+001	-2.849817e+001	1.249809e+002	-2.459619e+001	1.220423e+002	1.577176e+000	-6.039435e+001
2550000000	-3.408747e+000	-7.234106e+001	-2.751596e+001	1.182074e+002	-2.378583e+001	1.192988e+002	1.612820e+000	-6.091541e+001
2560000000	-3.023924e+000	-7.512929e+001	-2.687076e+001	1.120946e+002	-2.304745e+001	1.161704e+002	1.579789e+000	-6.185812e+001
2570000000	-2.572558e+000	-7.869631e+001	-2.639940e+001	1.082756e+002	-2.226490e+001	1.131317e+002	1.472381e+000	-6.321118e+001
2580000000	-2.092647e+000	-8.300235e+001	-2.571282e+001	1.071243e+002	-2.145390e+001	1.099598e+002	1.301177e+000	-6.499671e+001
2590000000	-1.632100e+000	-8.798377e+001	-2.457958e+001	1.068859e+002	-2.066915e+001	1.058732e+002	1.068246e+000	-6.706553e+001
2600000000	-1.249163e+000	-9.349524e+001	-2.304610e+001	1.043034e+002	-1.997012e+001	1.011988e+002	7.875131e-001	-6.936331e+001
2610000000	-9.837624e-001	-9.931875e+001	-2.145575e+001	9.865349e+001	-1.938165e+001	9.678785e+001	4.788716e-001	-7.190323e+001
2620000000	-8.572515e-001	-1.051675e+002	-2.009469e+001	9.060872e+001	-1.883202e+001	9.309831e+001	1.551514e-001	-7.463257e+001
2630000000	-8.696351e-001	-1.108341e+002	-1.909706e+001	8.207291e+001	-1.820487e+001	9.017209e+001	-1.603151e-001	-7.766388e+001
2640000000	-9.934764e-001	-1.162084e+002	-1.839113e+001	7.401349e+001	-1.739159e+001	8.791697e+001	-4.528212e-001	-8.125210e+001
2650000000	-1.207606e+000	-1.212877e+002	-1.786916e+001	6.763048e+001	-1.630869e+001	8.535305e+001	-7.060070e-001	-8.552841e+001
2660000000	-1.484965e+000	-1.261671e+002	-1.734295e+001	6.304094e+001	-1.500419e+001	8.143122e+001	-9.170432e-001	-9.075864e+001
2670000000	-1.800631e+000	-1.308741e+002	-1.662191e+001	6.002241e+001	-1.359141e+001	7.554341e+001	-1.077235e+000	-9.700514e+001
2680000000	-2.137413e+000	-1.353386e+002	-1.553836e+001	5.723937e+001	-1.223642e+001	6.755516e+001	-1.187495e+000	-1.042238e+002
2690000000	-2.428414e+000	-1.396979e+002	-1.414840e+001	5.274348e+001	-1.114521e+001	5.815839e+001	-1.256953e+000	-1.121056e+002
2700000000	-2.637083e+000	-1.443194e+002	-1.279887e+001	4.560284e+001	-1.033680e+001	4.891101e+001	-1.278124e+000	-1.203639e+002
2710000000	-2.775179e+000	-1.496244e+002	-1.170188e+001	3.725742e+001	-9.696698e+000	4.091187e+001	-1.274242e+000	-1.286683e+002
2720000000	-2.886797e+000	-1.559268e+002	-1.081489e+001	2.922572e+001	-9.024341e+000	3.426546e+001	-1.278179e+000	-1.368987e+002
2730000000	-3.006187e+000	-1.634366e+002	-9.989148e+000	2.211926e+001	-8.171651e+000	2.828402e+001	-1.334321e+000	-1.449587e+002
2740000000	-3.189584e+000	-1.725177e+002	-9.074660e+000	1.590406e+001	-7.100879e+000	2.182786e+001	-1.497289e+000	-1.530761e+002
2750000000	-3.547502e+000	1.767211e+002	-7.925091e+000	9.870622e+000	-5.873333e+000	1.380432e+001	-1.848428e+000	-1.614076e+002
2760000000	-4.193152e+000	1.650405e+002	-6.491072e+000	2.462949e+000	-4.643599e+000	3.626330e+000	-2.447179e+000	-1.697231e+002
2770000000	-4.993009e+000	1.542156e+002	-4.966333e+000	-8.156615e+000	-3.599384e+000	-8.550008e+000	-3.236557e+000	-1.774569e+002
2780000000	-5.438915e+000	1.441437e+002	-3.738638e+000	-2.170782e+001	-2.866721e+000	-2.150337e+001	-3.947757e+000	1.751889e+002
2790000000	-5.420735e+000	1.312536e+002	-2.958216e+000	-3.633950e+001	-2.373508e+000	-3.411308e+001	-4.429415e+000	1.657930e+002
2800000000	-5.437594e+000	1.147708e+002	-2.589217e+000	-5.068891e+001	-2.009622e+000	-4.620739e+001	-4.891052e+000	1.527844e+002
2810000000	-5.851523e+000	9.692961e+001	-2.571958e+000	-6.357843e+001	-1.771025e+000	-5.784193e+001	-5.606155e+000	1.370338e+002
2820000000	-6.768057e+000	8.036558e+001	-2.690308e+000	-7.402557e+001	-1.617179e+000	-6.859377e+001	-6.647389e+000	1.209184e+002
2830000000	-8.178583e+000	6.705531e+001	-2.678761e+000	-8.250060e+001	-1.453981e+000	-7.861619e+001	-8.004643e+000	1.067581e+002
2840000000	-9.935064e+000	5.921829e+001	-2.433840e+000	-9.060694e+001	-1.248057e+000	-8.844925e+001	-9.565560e+000	9.719521e+001
2850000000	-1.136914e+001	5.785264e+001	-2.081783e+000	-9.947714e+001	-1.051962e+000	-9.854701e+001	-1.080308e+001	9.371438e+001
2860000000	-1.170754e+001	5.745644e+001	-1.747046e+000	-1.089646e+002	-9.059165e-001	-1.087279e+002	-1.105900e+001	9.206922e+001
2870000000	-1.144778e+001	5.045296e+001	-1.453752e+000	-1.189032e+002	-7.993693e-001	-1.189276e+002	-1.068831e+001	8.566759e+001
2880000000	-1.142845e+001	3.694828e+001	-1.254433e+000	-1.293712e+002	-7.716822e-001	-1.293160e+002	-1.047890e+001	7.347062e+001
2890000000	-1.188618e+001	2.049327e+001	-1.220903e+000	-1.398618e+002	-8.735652e-001	-1.394456e+002	-1.079315e+001	5.829804e+001
2900000000	-1.262861e+001	4.655904e+000	-1.326486e+000	-1.495730e+002	-1.059369e+000	-1.487167e+002	-1.152387e+001	4.360601e+001
2910000000	-1.325525e+001	-8.688964e+000	-1.443133e+000	-1.582130e+002	-1.223598e+000	-1.570535e+002	-1.241045e+001	3.137845e+001
2920000000	-1.361745e+001	-1.938093e+001	-1.499067e+000	-1.661438e+002	-1.289897e+000	-1.648025e+002	-1.319128e+001	2.231554e+001
2930000000	-1.377215e+001	-2.871344e+001	-1.459501e+000	-1.738140e+002	-1.244190e+000	-1.725360e+002	-1.376522e+001	1.575997e+001
2940000000	-1.390251e+001	-3.765726e+001	-1.334352e+000	1.783513e+002	-1.123035e+000	1.791798e+002	-1.412878e+001	9.880385e+000
2950000000	-1.415353e+001	-4.718398e+001	-1.160484e+000	1.699771e+002	-1.019983e+000	1.700650e+002	-1.452710e+001	2.070661e+000
2960000000	-1.459355e+001	-5.709242e+001	-1.037666e+000	1.612267e+002	-9.886098e-001	1.608158e+002	-1.513115e+001	-6.715590e+000
2970000000	-1.525124e+001	-6.763671e+001	-1.002214e+000	1.522068e+002	-1.067605e+000	1.518343e+002	-1.595503e+001	-1.567759e+001
2980000000	-1.616355e+001	-7.787975e+001	-1.057555e+000	1.434378e+002	-1.197589e+000	1.435708e+002	-1.707175e+001	-2.307165e+001
2990000000	-1.731186e+001	-8.855778e+001	-1.143525e+000	1.351292e+002	-1.278372e+000	1.360036e+002	-1.844914e+001	-2.841301e+001
3000000000	-1.883562e+001	-1.015442e+002	-1.196655e+000	1.271974e+002	-1.249516e+000	1.284996e+002	-2.022633e+001	-3.242653e+001
3010000000	-2.106831e+001	-1.189019e+002	-1.186906e+000	1.192671e+002	-1.140905e+000	1.205301e+002	-2.301004e+001	-3.124601e+001
3020000000	-2.418643e+001	-1.456197e+002	-1.161521e+000	1.109508e+002	-1.051324e+000	1.117826e+002	-2.678724e+001	-1.544877e+001
3030000000	-2.602541e+001	1.705424e+002	-1.163571e+000	1.024204e+002	-1.060266e+000	1.025924e+002	-2.761108e+001	2.599495e+001
3040000000	-2.405865e+001	1.245933e+002	-1.211701e+000	9.392835e+001	-1.177547e+000	9.369027e+001	-2.385996e+001	5.179647e+001
3050000000	-2.081474e+001	9.670258e+001	-1.259967e+000	8.564937e+001	-1.314412e+000	8.545592e+001	-2.038036e+001	5.695043e+001
3060000000	-1.897803e+001	7.684781e+001	-1.246996e+000	7.765676e+001	-1.424605e+000	7.751393e+001	-1.780073e+001	5.444211e+001
3070000000	-1.740795e+001	6.623674e+001	-1.195569e+000	6.934347e+001	-1.448722e+000	6.925785e+001	-1.609460e+001	5.023691e+001
3080000000	-1.560110e+001	5.922031e+001	-1.153162e+000	6.058703e+001	-1.446984e+000	6.036414e+001	-1.494365e+001	4.608563e+001
3090000000	-1.379334e+001	5.001564e+001	-1.166987e+000	5.142549e+001	-1.487035e+000	5.079149e+001	-1.420879e+001	4.125787e+001
3100000000	-1.245173e+001	3.745750e+001	-1.261957e+000	4.220934e+001	-1.643589e+000	4.089033e+001	-1.382512e+001	3.479594e+001
3110000000	-1.175760e+001	2.329501e+001	-1.403557e+000	3.337645e+001	-1.898082e+000	3.141721e+001	-1.376823e+001	2.554965e+001
3120000000	-1.168613e+001	8.806614e+000	-1.515938e+000	2.495081e+001	-2.137375e+000	2.261355e+001	-1.407548e+001	1.219079e+001
3130000000	-1.222230e+001	-4.839389e+000	-1.539391e+000	1.654489e+001	-2.256146e+000	1.396868e+001	-1.464325e+001	-5.935545e+000
3140000000	-1.342624e+001	-1.449931e+001	-1.471307e+000	7.610569e+000	-2.278876e+000	4.682601e+000	-1.544679e+001	-2.859364e+001
3150000000	-1.518709e+001	-1.523129e+001	-1.356525e+000	-2.281089e+000	-2.281369e+000	-5.578906e+000	-1.647331e+001	-5.479686e+001
3160000000	-1.649783e+001	-1.589010e+000	-1.281091e+000	-1.337432e+001	-2.327927e+000	-1.678171e+001	-1.813285e+001	-8.519035e+001
3170000000	-1.557785e+001	2.012844e+001	-1.334879e+000	-2.553694e+001	-2.453843e+000	-2.889331e+001	-2.094468e+001	-1.293377e+002
3180000000	-1.284461e+001	3.605817e+001	-1.570577e+000	-3.839904e+001	-2.708023e+000	-4.187105e+001	-2.075401e+001	1.574820e+002
3190000000	-9.665813e+000	4.348172e+001	-1.998257e+000	-5.145801e+001	-3.153075e+000	-5.554368e+001	-1.532289e+001	1.086392e+002
3200000000	-6.808799e+000	4.404107e+001	-2.609175e+000	-6.452070e+001	-3.836432e+000	-6.952488e+001	-1.098313e+001	8.465715e+001
3210000000	-4.610376e+000	4.057399e+001	-3.400246e+000	-7.756998e+001	-4.777670e+000	-8.334179e+001	-7.921635e+000	6.989110e+001
3220000000	-3.121170e+000	3.545989e+001	-4.390950e+000	-9.038672e+001	-5.950760e+000	-9.643884e+001	-5.648961e+000	5.901771e+001
3230000000	-2.185933e+000	3.010278e+001	-5.626851e+000	-1.026284e+002	-7.326422e+000	-1.085232e+002	-3.938805e+000	4.967940e+001
3240000000	-1.651193e+000	2.479525e+001	-7.130777e+000	-1.135524e+002	-8.882145e+000	-1.192332e+002	-2.724609e+000	4.126585e+001
3250000000	-1.386051e+000	1.936001e+001	-8.804334e+000	-1.221619e+002	-1.055066e+001	-1.281356e+002	-1.917334e+000	3.383298e+001
3260000000	-1.350755e+000	1.335485e+001	-1.046528e+001	-1.282584e+002	-1.224955e+001	-1.351113e+002	-1.374003e+000	2.735358e+001
3270000000	-1.456823e+000	6.521877e+000	-1.195347e+001	-1.323015e+002	-1.388110e+001	-1.401389e+002	-9.983380e-001	2.173293e+001
3280000000	-1.672608e+000	-1.011448e+000	-1.318589e+001	-1.351444e+002	-1.532523e+001	-1.433992e+002	-7.340848e-001	1.678357e+001
3290000000	-1.917669e+000	-8.840701e+000	-1.414214e+001	-1.378104e+002	-1.645467e+001	-1.456603e+002	-5.513068e-001	1.239262e+001
3300000000	-2.094081e+000	-1.639278e+001	-1.488452e+001	-1.412719e+002	-1.723382e+001	-1.486375e+002	-4.292632e-001	8.531471e+000
3310000000	-2.104215e+000	-2.331953e+001	-1.556227e+001	-1.461862e+002	-1.790794e+001	-1.534987e+002	-3.625999e-001	5.193529e+000
3320000000	-1.916315e+000	-2.944658e+001	-1.642673e+001	-1.525521e+002	-1.873736e+001	-1.600385e+002	-3.413960e-001	2.345305e+000
3330000000	-1.579970e+000	-3.485309e+001	-1.759591e+001	-1.585248e+002	-1.984978e+001	-1.667334e+002	-3.761255e-001	-8.162489e-002
3340000000	-1.181220e+000	-3.973347e+001	-1.898811e+001	-1.628039e+002	-2.119992e+001	-1.724809e+002	-4.658914e-001	-2.174891e+000
3350000000	-7.926160e-001	-4.403460e+001	-2.039634e+001	-1.645940e+002	-2.267256e+001	-1.764794e+002	-6.033160e-001	-4.009795e+000
3360000000	-4.904710e-001	-4.727855e+001	-2.162925e+001	-1.642575e+002	-2.417950e+001	-1.784941e+002	-8.027659e-001	-5.848304e+000
3370000000	-2.498590e-001	-4.962867e+001	-2.254303e+001	-1.623514e+002	-2.557384e+001	-1.778400e+002	-1.038133e+000	-7.819376e+000
3380000000	-2.368425e-002	-5.106324e+001	-2.309566e+001	-1.602364e+002	-2.666371e+001	-1.752973e+002	-1.309524e+000	-1.005896e+001
3390000000	2.290956e-001	-5.191718e+001	-2.324963e+001	-1.593419e+002	-2.724330e+001	-1.721005e+002	-1.606527e+000	-1.269941e+001
3400000000	5.020932e-001	-5.265581e+001	-2.322035e+001	-1.608616e+002	-2.730437e+001	-1.705254e+002	-1.927836e+000	-1.583393e+001
3410000000	7.418142e-001	-5.374531e+001	-2.328377e+001	-1.648607e+002	-2.713750e+001	-1.718609e+002	-2.254373e+000	-1.946675e+001
3420000000	8.639907e-001	-5.533178e+001	-2.369310e+001	-1.706651e+002	-2.714319e+001	-1.767054e+002	-2.561497e+000	-2.344255e+001
3430000000	7.934908e-001	-5.701455e+001	-2.447264e+001	-1.760181e+002	-2.748525e+001	1.769114e+002	-2.828657e+000	-2.759326e+001
3440000000	5.168900e-001	-5.828900e+001	-2.556939e+001	-1.795048e+002	-2.825635e+001	1.704368e+002	-3.033004e+000	-3.174795e+001
3450000000	9.242241e-002	-5.876083e+001	-2.667467e+001	1.799350e+002	-2.925978e+001	1.655252e+002	-3.158312e+000	-3.582763e+001
3460000000	-3.674502e-001	-5.858867e+001	-2.760101e+001	-1.786348e+002	-3.047184e+001	1.627292e+002	-3.208967e+000	-3.959878e+001
3470000000	-7.994976e-001	-5.838766e+001	-2.819116e+001	-1.755540e+002	-3.170814e+001	1.616734e+002	-3.174254e+000	-4.306708e+001
3480000000	-1.173709e+000	-5.908130e+001	-2.841679e+001	-1.730730e+002	-3.287397e+001	1.634883e+002	-3.052096e+000	-4.633649e+001
3490000000	-1.510135e+000	-6.143659e+001	-2.837516e+001	-1.713532e+002	-3.376765e+001	1.682573e+002	-2.841907e+000	-4.952603e+001
3500000000	-1.845519e+000	-6.597438e+001	-2.810519e+001	-1.717552e+002	-3.381906e+001	1.745769e+002	-2.564563e+000	-5.264628e+001
