!Agilent Technologies,E5071C,MY46520292,B.13.20
!Date: Sun Dec 10 03:01:34 2023
!Data & Calibration Information:
!Freq	S11:SOLT2(ON)	S21:SOLT2(ON)	S12:SOLT2(ON)	S22:SOLT2(ON)
!PortZ  Port1:50+j0    Port2:50+j0
!Above PortZ is port z conversion or system Z0 setting when saving the data.
!When reading, reference impedance value at option line is always used.
# Hz S dB R 50
2000000000	-6.704204e+000	-1.202030e+001	-4.609288e+001	-1.047063e+002	-3.543728e+001	-1.019982e+002	3.879308e+000	2.130453e+001
2012500000	-7.043553e+000	-1.438207e+001	-4.483612e+001	-1.072604e+002	-3.560988e+001	-9.938929e+001	2.908454e+000	2.578672e+001
2025000000	-7.266392e+000	-1.579875e+001	-4.415912e+001	-1.146574e+002	-3.576184e+001	-1.005099e+002	1.753333e+000	2.721810e+001
2037500000	-7.334896e+000	-1.629170e+001	-4.389859e+001	-1.245359e+002	-3.598536e+001	-1.058672e+002	5.366175e-001	2.591879e+001
2050000000	-7.243768e+000	-1.579911e+001	-4.457730e+001	-1.334661e+002	-3.639175e+001	-1.128055e+002	-6.280102e-001	2.242990e+001
2062500000	-7.016463e+000	-1.484840e+001	-4.571369e+001	-1.367987e+002	-3.756075e+001	-1.181678e+002	-1.591405e+000	1.717838e+001
2075000000	-6.662622e+000	-1.320722e+001	-4.666969e+001	-1.356577e+002	-3.812133e+001	-1.227672e+002	-2.332697e+000	1.102209e+001
2087500000	-6.218730e+000	-1.121216e+001	-4.696102e+001	-1.290167e+002	-3.875138e+001	-1.246104e+002	-2.786935e+000	4.485361e+000
2100000000	-5.711974e+000	-9.310906e+000	-4.571239e+001	-1.244688e+002	-3.872736e+001	-1.246052e+002	-2.918661e+000	-2.055806e+000
2112500000	-5.169308e+000	-8.024830e+000	-4.401701e+001	-1.284614e+002	-3.837586e+001	-1.278317e+002	-2.777162e+000	-8.146296e+000
2125000000	-4.581685e+000	-7.918370e+000	-4.304454e+001	-1.395215e+002	-3.794236e+001	-1.339875e+002	-2.419160e+000	-1.333714e+001
2137500000	-3.967171e+000	-9.577297e+000	-4.278999e+001	-1.507911e+002	-3.828922e+001	-1.411844e+002	-1.933389e+000	-1.727036e+001
2150000000	-3.378761e+000	-1.366467e+001	-4.312409e+001	-1.617978e+002	-3.907466e+001	-1.466347e+002	-1.432048e+000	-1.993943e+001
2162500000	-3.012730e+000	-1.979687e+001	-4.381950e+001	-1.671257e+002	-4.005953e+001	-1.505689e+002	-1.016171e+000	-2.203873e+001
2175000000	-2.938876e+000	-2.748142e+001	-4.445628e+001	-1.720199e+002	-4.093371e+001	-1.511267e+002	-7.156290e-001	-2.328301e+001
2187500000	-3.194586e+000	-3.512834e+001	-4.429686e+001	-1.715948e+002	-4.099509e+001	-1.486459e+002	-5.662893e-001	-2.402609e+001
2200000000	-3.685317e+000	-4.119648e+001	-4.366654e+001	-1.753362e+002	-4.068867e+001	-1.536568e+002	-5.709403e-001	-2.465179e+001
2212500000	-4.258113e+000	-4.537072e+001	-4.324990e+001	1.759355e+002	-4.049860e+001	-1.617928e+002	-6.761544e-001	-2.520352e+001
2225000000	-4.801709e+000	-4.792025e+001	-4.363125e+001	1.659381e+002	-4.097333e+001	-1.729500e+002	-8.398978e-001	-2.580985e+001
2237500000	-5.246958e+000	-4.931669e+001	-4.455082e+001	1.562821e+002	-4.204368e+001	1.783955e+002	-1.018300e+000	-2.662077e+001
2250000000	-5.574589e+000	-5.016926e+001	-4.571704e+001	1.535082e+002	-4.299255e+001	1.725879e+002	-1.189418e+000	-2.783151e+001
2262500000	-5.740009e+000	-5.064887e+001	-4.660977e+001	1.526875e+002	-4.350247e+001	1.700546e+002	-1.377796e+000	-2.937824e+001
2275000000	-5.737630e+000	-5.110701e+001	-4.733149e+001	1.589145e+002	-4.356162e+001	1.697123e+002	-1.565100e+000	-3.150464e+001
2287500000	-5.564293e+000	-5.164233e+001	-4.697618e+001	1.658302e+002	-4.288937e+001	1.693639e+002	-1.775185e+000	-3.424282e+001
2300000000	-5.218628e+000	-5.221215e+001	-4.576624e+001	1.687758e+002	-4.184208e+001	1.629919e+002	-2.013039e+000	-3.747286e+001
2312500000	-4.713486e+000	-5.272825e+001	-4.425022e+001	1.658926e+002	-4.112885e+001	1.552855e+002	-2.280830e+000	-4.092749e+001
2325000000	-4.093781e+000	-5.333551e+001	-4.318903e+001	1.587105e+002	-4.060458e+001	1.472898e+002	-2.568726e+000	-4.464624e+001
2337500000	-3.409025e+000	-5.428269e+001	-4.265034e+001	1.509921e+002	-4.069831e+001	1.377411e+002	-2.844731e+000	-4.860246e+001
2350000000	-2.711017e+000	-5.591286e+001	-4.242282e+001	1.441313e+002	-4.105100e+001	1.328592e+002	-3.092133e+000	-5.286311e+001
2362500000	-2.057802e+000	-5.856156e+001	-4.255684e+001	1.393723e+002	-4.113745e+001	1.303083e+002	-3.262484e+000	-5.741642e+001
2375000000	-1.543262e+000	-6.245596e+001	-4.237928e+001	1.374272e+002	-4.087636e+001	1.329757e+002	-3.336748e+000	-6.246402e+001
2387500000	-1.253375e+000	-6.754687e+001	-4.146611e+001	1.359022e+002	-4.011625e+001	1.318857e+002	-3.293525e+000	-6.799673e+001
2400000000	-1.238024e+000	-7.328975e+001	-4.035447e+001	1.332492e+002	-3.880816e+001	1.288522e+002	-3.115599e+000	-7.376640e+001
2412500000	-1.485840e+000	-7.893785e+001	-3.915201e+001	1.246153e+002	-3.779150e+001	1.207782e+002	-2.782607e+000	-7.952278e+001
2425000000	-1.928137e+000	-8.373343e+001	-3.846179e+001	1.120362e+002	-3.722617e+001	1.113428e+002	-2.339974e+000	-8.493451e+001
2437500000	-2.465367e+000	-8.730322e+001	-3.877124e+001	9.956322e+001	-3.699494e+001	1.023689e+002	-1.839262e+000	-8.971208e+001
2450000000	-2.978348e+000	-8.939303e+001	-3.986123e+001	8.999329e+001	-3.729752e+001	9.615091e+001	-1.313386e+000	-9.364718e+001
2462500000	-3.380373e+000	-9.080005e+001	-4.094642e+001	8.916199e+001	-3.722981e+001	9.455545e+001	-7.884344e-001	-9.656821e+001
2475000000	-3.719792e+000	-9.158296e+001	-4.157388e+001	9.343790e+001	-3.683294e+001	9.281638e+001	-2.888892e-001	-9.860476e+001
2487500000	-3.942146e+000	-9.191033e+001	-4.099341e+001	9.960176e+001	-3.604398e+001	9.124932e+001	1.692436e-001	-9.977945e+001
2500000000	-4.027385e+000	-9.217488e+001	-3.985592e+001	1.024682e+002	-3.520753e+001	8.941392e+001	5.758668e-001	-1.002774e+002
2512500000	-3.959573e+000	-9.272437e+001	-3.829633e+001	1.006465e+002	-3.432566e+001	8.688373e+001	9.217288e-001	-1.003893e+002
2525000000	-3.727020e+000	-9.380792e+001	-3.691181e+001	9.552733e+001	-3.347318e+001	8.360436e+001	1.190128e+000	-1.003841e+002
2537500000	-3.334653e+000	-9.568813e+001	-3.605266e+001	8.787849e+001	-3.271789e+001	8.026208e+001	1.362154e+000	-1.005568e+002
2550000000	-2.808155e+000	-9.851539e+001	-3.575608e+001	8.124386e+001	-3.216927e+001	7.793522e+001	1.418469e+000	-1.010455e+002
2562500000	-2.196798e+000	-1.023664e+002	-3.566258e+001	7.827960e+001	-3.160844e+001	7.514885e+001	1.367090e+000	-1.018975e+002
2575000000	-1.590163e+000	-1.072093e+002	-3.520737e+001	7.850396e+001	-3.105763e+001	7.325296e+001	1.213004e+000	-1.030262e+002
2587500000	-1.091118e+000	-1.127731e+002	-3.395189e+001	7.854270e+001	-3.046322e+001	7.072677e+001	9.764339e-001	-1.043643e+002
2600000000	-7.745841e-001	-1.185812e+002	-3.246673e+001	7.403095e+001	-3.002577e+001	6.740045e+001	6.927147e-001	-1.058055e+002
2612500000	-6.689078e-001	-1.241161e+002	-3.135025e+001	6.577710e+001	-2.978754e+001	6.513720e+001	3.889957e-001	-1.074485e+002
2625000000	-7.407657e-001	-1.289404e+002	-3.071208e+001	5.746995e+001	-2.944971e+001	6.406013e+001	1.211510e-001	-1.093432e+002
2637500000	-9.317396e-001	-1.329368e+002	-3.054732e+001	5.040110e+001	-2.890878e+001	6.402270e+001	-1.032239e-001	-1.118662e+002
2650000000	-1.185550e+000	-1.362781e+002	-3.047916e+001	4.632073e+001	-2.801038e+001	6.329247e+001	-2.566985e-001	-1.152870e+002
2662500000	-1.449612e+000	-1.391259e+002	-3.020988e+001	4.564823e+001	-2.684407e+001	6.063982e+001	-3.332915e-001	-1.196401e+002
2675000000	-1.702099e+000	-1.416508e+002	-2.942571e+001	4.567612e+001	-2.571416e+001	5.541961e+001	-3.396866e-001	-1.248091e+002
2687500000	-1.917151e+000	-1.439578e+002	-2.820808e+001	4.361081e+001	-2.488857e+001	4.808958e+001	-3.005213e-001	-1.304549e+002
2700000000	-2.073646e+000	-1.461564e+002	-2.711238e+001	3.837513e+001	-2.443692e+001	4.139949e+001	-2.462202e-001	-1.359507e+002
2712500000	-2.163779e+000	-1.482332e+002	-2.635924e+001	3.260727e+001	-2.421945e+001	3.710837e+001	-1.989264e-001	-1.407944e+002
2725000000	-2.164607e+000	-1.503198e+002	-2.584559e+001	2.845960e+001	-2.388421e+001	3.486998e+001	-1.816575e-001	-1.447377e+002
2737500000	-2.076784e+000	-1.526882e+002	-2.530845e+001	2.705103e+001	-2.324672e+001	3.390577e+001	-1.855125e-001	-1.479128e+002
2750000000	-1.906503e+000	-1.556615e+002	-2.440526e+001	2.691809e+001	-2.223283e+001	3.249440e+001	-2.098603e-001	-1.507716e+002
2762500000	-1.662837e+000	-1.596429e+002	-2.299144e+001	2.740781e+001	-2.096454e+001	2.922746e+001	-2.496007e-001	-1.537907e+002
2775000000	-1.392185e+000	-1.649827e+002	-2.102761e+001	2.484639e+001	-1.963150e+001	2.373609e+001	-3.089542e-001	-1.575599e+002
2787500000	-1.133900e+000	-1.717816e+002	-1.898544e+001	1.752165e+001	-1.842560e+001	1.642884e+001	-3.897082e-001	-1.624429e+002
2800000000	-9.492303e-001	-1.798584e+002	-1.739458e+001	6.686392e+000	-1.740017e+001	8.557559e+000	-4.903311e-001	-1.685309e+002
2812500000	-8.795881e-001	1.714774e+002	-1.640597e+001	-4.689800e+000	-1.648823e+001	8.520206e-001	-6.111303e-001	-1.756336e+002
2825000000	-9.255847e-001	1.631286e+002	-1.582413e+001	-1.425560e+001	-1.568055e+001	-6.436205e+000	-7.443220e-001	1.767719e+002
2837500000	-1.051239e+000	1.556534e+002	-1.538349e+001	-2.076805e+001	-1.491075e+001	-1.272560e+001	-8.749295e-001	1.692490e+002
2850000000	-1.212795e+000	1.493133e+002	-1.469900e+001	-2.430714e+001	-1.401463e+001	-1.770606e+001	-9.999035e-001	1.619947e+002
2862500000	-1.374656e+000	1.437972e+002	-1.344525e+001	-2.685659e+001	-1.277700e+001	-2.214413e+001	-1.113596e+000	1.549490e+002
2875000000	-1.538207e+000	1.384364e+002	-1.165015e+001	-3.162676e+001	-1.111919e+001	-2.794668e+001	-1.241610e+000	1.476384e+002
2887500000	-1.712572e+000	1.325003e+002	-9.680085e+000	-4.061689e+001	-9.232153e+000	-3.729108e+001	-1.404762e+000	1.394896e+002
2900000000	-1.954886e+000	1.250312e+002	-7.985640e+000	-5.341453e+001	-7.557775e+000	-5.063756e+001	-1.639916e+000	1.297210e+002
2912500000	-2.387926e+000	1.157565e+002	-6.851738e+000	-6.766645e+001	-6.435412e+000	-6.603660e+001	-2.060033e+000	1.179489e+002
2925000000	-3.053731e+000	1.053505e+002	-6.167357e+000	-8.026224e+001	-5.878291e+000	-8.000614e+001	-2.758899e+000	1.050051e+002
2937500000	-3.903066e+000	9.401219e+001	-5.441060e+000	-9.016064e+001	-5.414245e+000	-9.059055e+001	-3.730086e+000	9.167742e+001
2950000000	-5.060580e+000	8.174361e+001	-4.324560e+000	-1.000139e+002	-4.521216e+000	-9.977476e+001	-5.049607e+000	7.848047e+001
2962500000	-6.699233e+000	7.015068e+001	-3.036779e+000	-1.122726e+002	-3.224645e+000	-1.114056e+002	-6.779010e+000	6.475469e+001
2975000000	-8.647094e+000	5.889299e+001	-2.053367e+000	-1.278115e+002	-2.142325e+000	-1.263785e+002	-8.878090e+000	5.066947e+001
2987500000	-1.104943e+001	4.736534e+001	-1.644760e+000	-1.438404e+002	-1.603052e+000	-1.426013e+002	-1.149734e+001	3.533039e+001
3000000000	-1.403740e+001	3.738415e+001	-1.591870e+000	-1.577616e+002	-1.492283e+000	-1.572692e+002	-1.477784e+001	2.037621e+001
3012500000	-1.739807e+001	2.922098e+001	-1.527921e+000	-1.696766e+002	-1.482817e+000	-1.698420e+002	-1.857173e+001	5.414766e+000
3025000000	-2.160510e+001	2.115613e+001	-1.354048e+000	1.788330e+002	-1.391241e+000	1.786662e+002	-2.349661e+001	-1.159869e+001
3037500000	-2.776774e+001	1.579486e+001	-1.205859e+000	1.669866e+002	-1.258989e+000	1.671584e+002	-3.077429e+001	-3.121158e+001
3050000000	-4.041162e+001	2.258775e+001	-1.153422e+000	1.552629e+002	-1.183947e+000	1.555725e+002	-4.252131e+001	-7.191363e+001
3062500000	-4.128449e+001	1.210254e+002	-1.144517e+000	1.445473e+002	-1.283395e+000	1.444101e+002	-4.260558e+001	-1.481798e+002
3075000000	-4.058902e+001	-1.212154e+002	-1.094509e+000	1.343874e+002	-1.328017e+000	1.338467e+002	-3.531859e+001	1.748663e+002
3087500000	-2.654934e+001	-1.309815e+002	-1.031434e+000	1.242143e+002	-1.388498e+000	1.231961e+002	-3.346273e+001	1.687669e+002
3100000000	-2.132388e+001	-1.540439e+002	-9.787741e-001	1.140789e+002	-1.440756e+000	1.129103e+002	-3.032589e+001	-1.705404e+002
3112500000	-1.965813e+001	-1.759503e+002	-9.427421e-001	1.040256e+002	-1.463474e+000	1.024677e+002	-2.637482e+001	-1.609029e+002
3125000000	-2.109598e+001	1.672701e+002	-9.252263e-001	9.407739e+001	-1.520525e+000	9.179995e+001	-2.480406e+001	-1.545402e+002
3137500000	-2.636832e+001	1.662237e+002	-9.072071e-001	8.426956e+001	-1.620288e+000	8.124985e+001	-2.507249e+001	-1.337470e+002
3150000000	-3.104162e+001	-1.407307e+002	-8.825786e-001	7.453721e+001	-1.734004e+000	7.084559e+001	-2.274795e+001	-9.594226e+001
3162500000	-2.937443e+001	-1.191424e+002	-8.429542e-001	6.478427e+001	-1.866330e+000	6.052980e+001	-1.809645e+001	-7.813164e+001
3175000000	-4.058928e+001	-1.356478e+002	-8.000139e-001	5.487197e+001	-2.004471e+000	5.043863e+001	-1.485900e+001	-7.555146e+001
3187500000	-2.669201e+001	5.470198e+001	-7.809087e-001	4.471510e+001	-2.118498e+000	4.037646e+001	-1.346534e+001	-7.768664e+001
3200000000	-1.883242e+001	4.652858e+001	-8.117798e-001	3.448905e+001	-2.218863e+000	3.021319e+001	-1.382888e+001	-7.779635e+001
3212500000	-1.484208e+001	4.062977e+001	-8.693326e-001	2.425896e+001	-2.328999e+000	1.981339e+001	-1.515680e+001	-6.590936e+001
3225000000	-1.263440e+001	3.346715e+001	-9.580295e-001	1.406657e+001	-2.444779e+000	9.252687e+000	-1.410232e+001	-4.400723e+001
3237500000	-1.189114e+001	2.237662e+001	-1.093482e+000	4.155085e+000	-2.583305e+000	-1.551242e+000	-1.116502e+001	-3.928485e+001
3250000000	-1.270567e+001	5.788255e+000	-1.202777e+000	-5.238813e+000	-2.796273e+000	-1.248156e+001	-9.312293e+000	-4.875451e+001
3262500000	-1.513635e+001	-2.052797e+001	-1.205609e+000	-1.468179e+001	-3.075692e+000	-2.293168e+001	-8.955107e+000	-6.273858e+001
3275000000	-1.756044e+001	-6.032361e+001	-1.137800e+000	-2.482327e+001	-3.259276e+000	-3.281323e+001	-1.009014e+001	-7.443071e+001
3287500000	-1.713024e+001	-9.103490e+001	-1.097260e+000	-3.590797e+001	-3.308913e+000	-4.334539e+001	-1.215567e+001	-7.364436e+001
3300000000	-1.429637e+001	-9.592520e+001	-1.190805e+000	-4.767962e+001	-3.398522e+000	-5.507121e+001	-1.184328e+001	-5.983234e+001
3312500000	-1.018433e+001	-9.788954e+001	-1.483728e+000	-5.914965e+001	-3.610342e+000	-6.728410e+001	-9.490334e+000	-6.248081e+001
3325000000	-7.014711e+000	-1.068054e+002	-1.827839e+000	-6.935002e+001	-3.965353e+000	-7.970620e+001	-8.355165e+000	-7.943770e+001
3337500000	-5.339962e+000	-1.186385e+002	-2.027342e+000	-7.850594e+001	-4.504562e+000	-9.131187e+001	-8.695571e+000	-1.024796e+002
3350000000	-5.108139e+000	-1.299980e+002	-1.961109e+000	-8.770434e+001	-4.984637e+000	-1.006744e+002	-1.029094e+001	-1.303550e+002
3362500000	-6.300891e+000	-1.379139e+002	-1.652166e+000	-9.849694e+001	-4.958803e+000	-1.094880e+002	-1.335490e+001	-1.624127e+002
3375000000	-8.570276e+000	-1.370278e+002	-1.317493e+000	-1.119864e+002	-4.602828e+000	-1.218457e+002	-1.923168e+001	1.756239e+002
3387500000	-1.038033e+001	-1.241364e+002	-1.197307e+000	-1.274846e+002	-4.472579e+000	-1.372664e+002	-2.125937e+001	-1.425622e+002
3400000000	-1.129061e+001	-1.099576e+002	-1.279664e+000	-1.440174e+002	-4.529805e+000	-1.538577e+002	-1.560010e+001	-1.514530e+002
3412500000	-1.209067e+001	-8.678233e+001	-1.499285e+000	-1.619196e+002	-4.759123e+000	-1.724827e+002	-1.609039e+001	1.773105e+002
3425000000	-8.736512e+000	-6.394505e+001	-2.042495e+000	1.772802e+002	-5.318243e+000	1.668236e+002	-3.532237e+001	-2.134165e+001
3437500000	-5.239838e+000	-7.055921e+001	-3.551026e+000	1.552271e+002	-6.498251e+000	1.434317e+002	-1.076783e+001	-7.007516e+001
3450000000	-4.044298e+000	-8.638919e+001	-5.868970e+000	1.384727e+002	-8.840317e+000	1.214325e+002	-5.856134e+000	-9.522777e+001
3462500000	-3.850474e+000	-1.024543e+002	-8.010475e+000	1.277358e+002	-1.185488e+001	1.066729e+002	-3.688885e+000	-1.110535e+002
3475000000	-3.702835e+000	-1.195633e+002	-9.607851e+000	1.183880e+002	-1.456780e+001	1.001595e+002	-2.411273e+000	-1.216322e+002
3487500000	-3.217602e+000	-1.379447e+002	-1.098754e+001	1.072549e+002	-1.600432e+001	9.640802e+001	-1.501605e+000	-1.294245e+002
3500000000	-2.450724e+000	-1.547527e+002	-1.262867e+001	9.437884e+001	-1.669816e+001	8.616137e+001	-7.989571e-001	-1.357997e+002
3512500000	-1.583876e+000	-1.668828e+002	-1.469957e+001	8.210151e+001	-1.794007e+001	6.973544e+001	-3.194312e-001	-1.415773e+002
3525000000	-6.726802e-001	-1.738503e+002	-1.709888e+001	7.247820e+001	-2.015381e+001	5.210483e+001	-9.068732e-002	-1.464745e+002
3537500000	2.650361e-001	-1.774787e+002	-1.951382e+001	6.617559e+001	-2.334798e+001	3.702922e+001	-8.036166e-002	-1.500992e+002
3550000000	1.093807e+000	1.799483e+002	-2.177723e+001	6.250174e+001	-2.744111e+001	2.880200e+001	-2.142468e-001	-1.523968e+002
3562500000	1.568140e+000	1.773551e+002	-2.376669e+001	6.036402e+001	-3.162860e+001	3.473276e+001	-4.283210e-001	-1.535496e+002
3575000000	1.522411e+000	1.755482e+002	-2.542908e+001	5.981380e+001	-3.331375e+001	5.139420e+001	-6.748990e-001	-1.541144e+002
3587500000	1.095925e+000	1.755870e+002	-2.671359e+001	5.919086e+001	-3.273485e+001	5.783075e+001	-9.455925e-001	-1.547589e+002
3600000000	5.729298e-001	1.770225e+002	-2.755413e+001	5.755482e+001	-3.202054e+001	5.174489e+001	-1.237742e+000	-1.561557e+002
3612500000	1.439860e-001	1.779270e+002	-2.822887e+001	5.195853e+001	-3.203625e+001	3.825883e+001	-1.564339e+000	-1.589175e+002
3625000000	-2.280443e-001	1.758450e+002	-2.925421e+001	4.289115e+001	-3.327462e+001	2.012304e+001	-1.965495e+000	-1.636373e+002
3637500000	-7.703226e-001	1.692462e+002	-3.097300e+001	3.266289e+001	-3.589859e+001	2.758505e+000	-2.464081e+000	-1.703626e+002
3650000000	-1.647583e+000	1.591261e+002	-3.335497e+001	2.529058e+001	-3.976693e+001	-5.989751e+000	-3.018984e+000	-1.786282e+002
3662500000	-2.600105e+000	1.483516e+002	-3.579866e+001	2.379845e+001	-4.366429e+001	7.055666e-001	-3.554978e+000	1.724379e+002
3675000000	-3.067857e+000	1.390812e+002	-3.776382e+001	2.673793e+001	-4.522679e+001	1.326375e+001	-3.966083e+000	1.638978e+002
3687500000	-2.752321e+000	1.319129e+002	-3.902405e+001	3.016350e+001	-4.502943e+001	1.737449e+001	-4.169582e+000	1.564773e+002
3700000000	-1.804379e+000	1.261716e+002	-3.972509e+001	3.027555e+001	-4.487797e+001	1.209487e+001	-4.143596e+000	1.503834e+002
3712500000	-6.395686e-001	1.207425e+002	-4.005453e+001	2.585091e+001	-4.515347e+001	-1.266912e+000	-3.892516e+000	1.455119e+002
3725000000	2.537855e-001	1.155835e+002	-4.102615e+001	1.824260e+001	-4.678274e+001	-1.800003e+001	-3.443871e+000	1.413907e+002
3737500000	6.967714e-001	1.126461e+002	-4.258520e+001	1.012028e+001	-4.961501e+001	-3.334115e+001	-2.839593e+000	1.376639e+002
3750000000	9.306119e-001	1.130643e+002	-4.449721e+001	7.981528e-001	-5.370905e+001	-4.235405e+001	-2.134750e+000	1.342026e+002
3762500000	1.254652e+000	1.158853e+002	-4.644194e+001	-5.662090e+000	-5.820974e+001	-3.808010e+001	-1.391700e+000	1.308963e+002
3775000000	1.757001e+000	1.188649e+002	-4.858079e+001	-1.102109e+001	-6.082703e+001	-1.591069e+001	-6.905282e-001	1.279971e+002
3787500000	2.253293e+000	1.199360e+002	-5.037998e+001	-1.826275e+001	-5.892959e+001	-3.913552e+000	-9.426515e-002	1.256698e+002
3800000000	2.313453e+000	1.187430e+002	-5.223163e+001	-2.755525e+001	-5.722983e+001	-2.487933e+001	3.596263e-001	1.240632e+002
3812500000	1.701969e+000	1.176699e+002	-5.416132e+001	-3.559771e+001	-5.734101e+001	-4.852549e+001	6.601632e-001	1.232103e+002
3825000000	6.487351e-001	1.189053e+002	-5.461501e+001	-4.228722e+001	-5.856590e+001	-7.417371e+001	7.980602e-001	1.229387e+002
3837500000	-4.451981e-001	1.217815e+002	-5.354017e+001	-5.456101e+001	-6.017721e+001	-1.016617e+002	7.771287e-001	1.230951e+002
3850000000	-1.363601e+000	1.235319e+002	-5.313501e+001	-6.842264e+001	-6.192595e+001	-1.273468e+002	6.051010e-001	1.235184e+002
3862500000	-2.113088e+000	1.205851e+002	-5.246765e+001	-8.505847e+001	-6.376654e+001	-1.417706e+002	2.937526e-001	1.240849e+002
3875000000	-2.840661e+000	1.104314e+002	-5.180167e+001	-1.062664e+002	-6.700683e+001	-1.369344e+002	-1.293197e-001	1.247955e+002
3887500000	-3.503824e+000	9.447403e+001	-5.220016e+001	-1.205723e+002	-6.408908e+001	-1.293836e+002	-6.255486e-001	1.256033e+002
