!Agilent Technologies,E5071C,MY46520292,B.13.20
!Date: Sun Dec 10 02:50:43 2023
!Data & Calibration Information:
!Freq	S11:SOLT2(ON)	S21:SOLT2(ON)	S12:SOLT2(ON)	S22:SOLT2(ON)
!PortZ  Port1:50+j0    Port2:50+j0
!Above PortZ is port z conversion or system Z0 setting when saving the data.
!When reading, reference impedance value at option line is always used.
# Hz S dB R 50
3000000000	-2.561373e-001	-7.074242e+001	-4.259403e+001	1.442450e+002	-4.242002e+001	1.437373e+002	-3.003693e-001	-7.454558e+001
3010000000	-2.543189e-001	-7.235688e+001	-4.196912e+001	1.477903e+002	-4.199816e+001	1.460468e+002	-3.045243e-001	-7.626589e+001
3020000000	-2.574036e-001	-7.399512e+001	-4.098719e+001	1.474491e+002	-4.123912e+001	1.469130e+002	-3.048310e-001	-7.799587e+001
3030000000	-2.671141e-001	-7.567528e+001	-4.003662e+001	1.438750e+002	-4.001294e+001	1.447861e+002	-3.128548e-001	-7.980174e+001
3040000000	-2.709737e-001	-7.736996e+001	-3.911489e+001	1.380545e+002	-3.917276e+001	1.399408e+002	-3.210562e-001	-8.162508e+001
3050000000	-2.795729e-001	-7.913127e+001	-3.860705e+001	1.310305e+002	-3.852885e+001	1.320399e+002	-3.262110e-001	-8.349082e+001
3060000000	-3.310722e-001	-8.087016e+001	-3.861666e+001	1.235621e+002	-3.836481e+001	1.254164e+002	-3.714339e-001	-8.518206e+001
3070000000	-3.749891e-001	-8.229752e+001	-3.895699e+001	1.196151e+002	-3.872583e+001	1.181810e+002	-4.313327e-001	-8.694223e+001
3080000000	-3.656626e-001	-8.360105e+001	-3.917050e+001	1.166328e+002	-3.933803e+001	1.138071e+002	-4.796006e-001	-8.889157e+001
3090000000	-2.915846e-001	-8.509381e+001	-3.933361e+001	1.151679e+002	-3.966554e+001	1.123907e+002	-5.032564e-001	-9.108585e+001
3100000000	-1.727033e-001	-8.697151e+001	-3.940561e+001	1.163724e+002	-3.983652e+001	1.144472e+002	-4.890422e-001	-9.349384e+001
3110000000	-4.434080e-002	-8.919919e+001	-3.911487e+001	1.186823e+002	-3.970893e+001	1.158136e+002	-4.445144e-001	-9.600386e+001
3120000000	5.846066e-002	-9.160133e+001	-3.839892e+001	1.181993e+002	-3.909737e+001	1.156866e+002	-3.659912e-001	-9.837771e+001
3130000000	1.248512e-001	-9.399009e+001	-3.766297e+001	1.173491e+002	-3.835085e+001	1.148518e+002	-2.488681e-001	-1.005621e+002
3140000000	1.412423e-001	-9.594825e+001	-3.685706e+001	1.152723e+002	-3.755833e+001	1.124281e+002	-1.337185e-001	-1.023603e+002
3150000000	1.228566e-001	-9.740688e+001	-3.612591e+001	1.120930e+002	-3.701243e+001	1.080144e+002	-3.247337e-002	-1.037066e+002
3160000000	6.874341e-002	-9.852987e+001	-3.555925e+001	1.081208e+002	-3.658147e+001	1.037118e+002	4.678544e-002	-1.046289e+002
3170000000	-2.405989e-002	-9.944401e+001	-3.515953e+001	1.045621e+002	-3.621328e+001	1.005503e+002	9.049002e-002	-1.052617e+002
3180000000	-1.639185e-001	-1.003640e+002	-3.459730e+001	1.013351e+002	-3.596686e+001	9.727085e+001	1.004053e-001	-1.057645e+002
3190000000	-3.531524e-001	-1.014572e+002	-3.427557e+001	9.751297e+001	-3.558506e+001	9.446202e+001	6.919541e-002	-1.063048e+002
3200000000	-5.762153e-001	-1.028653e+002	-3.392377e+001	9.465337e+001	-3.524643e+001	9.162704e+001	-7.478972e-004	-1.070806e+002
3210000000	-8.077641e-001	-1.049960e+002	-3.363467e+001	9.259303e+001	-3.481799e+001	8.863024e+001	-9.535026e-002	-1.082276e+002
3220000000	-1.002749e+000	-1.079784e+002	-3.325073e+001	9.012343e+001	-3.443337e+001	8.513199e+001	-2.146098e-001	-1.098892e+002
3230000000	-1.128202e+000	-1.119850e+002	-3.281854e+001	8.951676e+001	-3.416691e+001	8.210187e+001	-3.579693e-001	-1.120759e+002
3240000000	-1.173006e+000	-1.168961e+002	-3.215937e+001	8.837863e+001	-3.379090e+001	8.042384e+001	-5.220763e-001	-1.147490e+002
3250000000	-1.147188e+000	-1.223757e+002	-3.142163e+001	8.708967e+001	-3.332337e+001	7.876656e+001	-7.098883e-001	-1.177678e+002
3260000000	-1.063677e+000	-1.278238e+002	-3.047632e+001	8.452917e+001	-3.270406e+001	7.721181e+001	-9.085350e-001	-1.210130e+002
3270000000	-9.131853e-001	-1.324653e+002	-2.961204e+001	8.023064e+001	-3.183755e+001	7.457889e+001	-1.124388e+000	-1.242833e+002
3280000000	-6.926409e-001	-1.360765e+002	-2.891374e+001	7.464173e+001	-3.100738e+001	6.998852e+001	-1.349221e+000	-1.275192e+002
3290000000	-4.074468e-001	-1.386923e+002	-2.853774e+001	6.916903e+001	-3.037192e+001	6.404067e+001	-1.582641e+000	-1.307334e+002
3300000000	-7.484060e-002	-1.407103e+002	-2.832588e+001	6.515817e+001	-2.998861e+001	5.802608e+001	-1.816779e+000	-1.340132e+002
3310000000	2.405481e-001	-1.424828e+002	-2.818507e+001	6.301022e+001	-2.981081e+001	5.258230e+001	-2.028574e+000	-1.375506e+002
3320000000	4.937884e-001	-1.443442e+002	-2.784012e+001	6.197181e+001	-2.970463e+001	4.869091e+001	-2.206835e+000	-1.415485e+002
3330000000	6.317453e-001	-1.463352e+002	-2.730614e+001	6.152248e+001	-2.965967e+001	4.597645e+001	-2.332921e+000	-1.460410e+002
3340000000	6.467667e-001	-1.482504e+002	-2.650617e+001	6.145796e+001	-2.952758e+001	4.512794e+001	-2.394483e+000	-1.510386e+002
3350000000	5.695461e-001	-1.498928e+002	-2.546812e+001	6.032230e+001	-2.908581e+001	4.577073e+001	-2.369020e+000	-1.565343e+002
3360000000	4.331556e-001	-1.513699e+002	-2.425946e+001	5.715406e+001	-2.824767e+001	4.644546e+001	-2.258915e+000	-1.622496e+002
3370000000	2.985082e-001	-1.530943e+002	-2.308337e+001	5.143395e+001	-2.697581e+001	4.500201e+001	-2.070218e+000	-1.678030e+002
3380000000	1.548531e-001	-1.554663e+002	-2.225350e+001	4.397987e+001	-2.567354e+001	4.019716e+001	-1.827489e+000	-1.729414e+002
3390000000	-5.908516e-002	-1.587981e+002	-2.181448e+001	3.657578e+001	-2.465434e+001	3.273076e+001	-1.547135e+000	-1.775393e+002
3400000000	-4.049611e-001	-1.631459e+002	-2.169371e+001	3.106861e+001	-2.402327e+001	2.439171e+001	-1.249235e+000	1.784856e+002
3410000000	-8.824881e-001	-1.681166e+002	-2.159000e+001	2.812626e+001	-2.373091e+001	1.694905e+001	-9.642225e-001	1.749614e+002
3420000000	-1.435946e+000	-1.733470e+002	-2.131960e+001	2.714993e+001	-2.363790e+001	1.103302e+001	-6.954392e-001	1.717807e+002
3430000000	-1.932782e+000	-1.789724e+002	-2.072173e+001	2.728927e+001	-2.360517e+001	6.980359e+000	-4.468634e-001	1.687283e+002
3440000000	-2.229300e+000	1.746341e+002	-1.970474e+001	2.714520e+001	-2.351057e+001	5.052051e+000	-2.368222e-001	1.655978e+002
3450000000	-2.212974e+000	1.670928e+002	-1.837303e+001	2.509282e+001	-2.313135e+001	5.318119e+000	-8.026384e-002	1.622975e+002
3460000000	-1.890423e+000	1.584973e+002	-1.694182e+001	2.012998e+001	-2.213261e+001	6.608043e+000	-1.802158e-002	1.587660e+002
3470000000	-1.381771e+000	1.492678e+002	-1.566417e+001	1.237073e+001	-2.049548e+001	4.722246e+000	-2.896722e-002	1.550407e+002
3480000000	-8.490526e-001	1.404639e+002	-1.479099e+001	3.015654e+000	-1.874851e+001	-2.677865e+000	-1.238876e-001	1.512810e+002
3490000000	-4.033319e-001	1.333018e+002	-1.434818e+001	-6.023435e+000	-1.746033e+001	-1.423789e+001	-2.993296e-001	1.474668e+002
3500000000	-4.770368e-002	1.283627e+002	-1.418166e+001	-1.318881e+001	-1.680922e+001	-2.718710e+001	-5.683023e-001	1.435558e+002
3510000000	2.892361e-001	1.253987e+002	-1.403915e+001	-1.794772e+001	-1.672789e+001	-3.966161e+001	-9.303403e-001	1.397110e+002
3520000000	6.252703e-001	1.234882e+002	-1.373975e+001	-2.101737e+001	-1.717948e+001	-5.005310e+001	-1.380083e+000	1.359070e+002
3530000000	9.190733e-001	1.215385e+002	-1.314954e+001	-2.336103e+001	-1.806903e+001	-5.676237e+001	-1.905304e+000	1.319441e+002
3540000000	1.032280e+000	1.187414e+002	-1.230380e+001	-2.615120e+001	-1.907909e+001	-5.641605e+001	-2.500656e+000	1.274853e+002
3550000000	8.099134e-001	1.150270e+002	-1.130306e+001	-3.008826e+001	-1.906058e+001	-4.822715e+001	-3.153332e+000	1.222505e+002
3560000000	1.906509e-001	1.110435e+002	-1.020577e+001	-3.532592e+001	-1.719306e+001	-4.213251e+001	-3.844431e+000	1.159534e+002
3570000000	-7.513845e-001	1.072269e+002	-9.077937e+000	-4.194032e+001	-1.464312e+001	-4.577104e+001	-4.503187e+000	1.081211e+002
3580000000	-1.827934e+000	1.029339e+002	-8.009155e+000	-5.031510e+001	-1.245886e+001	-5.725601e+001	-4.989940e+000	9.838812e+001
3590000000	-2.856709e+000	9.633272e+001	-7.153073e+000	-6.032297e+001	-1.100806e+001	-7.354202e+001	-5.107781e+000	8.619999e+001
3600000000	-3.733261e+000	8.500290e+001	-6.649176e+000	-7.083338e+001	-1.056071e+001	-9.177624e+001	-4.904203e+000	7.142661e+001
3610000000	-4.323835e+000	6.804346e+001	-6.482434e+000	-8.033955e+001	-1.119984e+001	-1.079335e+002	-4.568137e+000	5.586906e+001
3620000000	-4.431758e+000	4.776230e+001	-6.493555e+000	-8.777448e+001	-1.260879e+001	-1.168942e+002	-4.257754e+000	4.205826e+001
3630000000	-4.083278e+000	2.916934e+001	-6.445966e+000	-9.266614e+001	-1.365954e+001	-1.154685e+002	-4.009716e+000	3.111254e+001
3640000000	-3.535648e+000	1.547742e+001	-6.076338e+000	-9.572509e+001	-1.306041e+001	-1.101765e+002	-3.897074e+000	2.298913e+001
3650000000	-2.988429e+000	6.784574e+000	-5.235340e+000	-9.896281e+001	-1.125904e+001	-1.110637e+002	-3.972452e+000	1.768532e+001
3660000000	-2.551866e+000	1.761407e+000	-4.038053e+000	-1.044384e+002	-9.320902e+000	-1.195988e+002	-4.171884e+000	1.606288e+001
3670000000	-2.201954e+000	-6.859911e-001	-2.786314e+000	-1.131969e+002	-7.817591e+000	-1.335589e+002	-4.006038e+000	1.811381e+001
3680000000	-1.844436e+000	-2.374867e+000	-1.746079e+000	-1.247811e+002	-7.001101e+000	-1.506115e+002	-3.122389e+000	1.827039e+001
3690000000	-1.672502e+000	-5.939034e+000	-1.128239e+000	-1.382215e+002	-7.029587e+000	-1.683985e+002	-2.341319e+000	1.209467e+001
3700000000	-2.156143e+000	-1.117744e+001	-1.059613e+000	-1.513585e+002	-7.920696e+000	1.767934e+002	-2.511950e+000	2.708218e+000
3710000000	-3.462124e+000	-1.580882e+001	-1.311559e+000	-1.616769e+002	-9.133223e+000	1.690031e+002	-3.697547e+000	-5.027434e+000
3720000000	-5.573048e+000	-1.902570e+001	-1.451832e+000	-1.692230e+002	-9.640628e+000	1.673224e+002	-5.736531e+000	-7.528893e+000
3730000000	-8.941431e+000	-2.070561e+001	-1.273363e+000	-1.762181e+002	-9.029978e+000	1.644802e+002	-8.111819e+000	1.177335e+000
3740000000	-1.534419e+001	-1.379322e+001	-9.688515e-001	1.752926e+002	-8.146502e+000	1.552865e+002	-8.479912e+000	2.055803e+001
3750000000	-2.148809e+001	7.033026e+001	-8.528508e-001	1.660476e+002	-7.885466e+000	1.424110e+002	-6.942653e+000	2.831772e+001
3760000000	-1.364213e+001	1.078176e+002	-8.356206e-001	1.578202e+002	-8.271541e+000	1.309703e+002	-6.320455e+000	2.534492e+001
3770000000	-9.964631e+000	1.125698e+002	-6.737705e-001	1.503350e+002	-8.802267e+000	1.235545e+002	-7.245313e+000	2.127339e+001
3780000000	-8.196648e+000	1.125711e+002	-3.904554e-001	1.418271e+002	-8.851100e+000	1.188512e+002	-9.827404e+000	2.557614e+001
3790000000	-7.797906e+000	1.116645e+002	-2.424135e-001	1.321851e+002	-8.333862e+000	1.120618e+002	-1.154457e+001	5.349787e+001
3800000000	-8.423877e+000	1.137443e+002	-2.757266e-001	1.231450e+002	-7.880532e+000	1.017164e+002	-8.835413e+000	7.402916e+001
3810000000	-9.316083e+000	1.199891e+002	-2.194137e-001	1.150105e+002	-7.715593e+000	9.020406e+001	-6.481721e+000	7.329461e+001
3820000000	-9.996592e+000	1.252956e+002	-1.426283e-002	1.059811e+002	-7.709966e+000	7.812104e+001	-5.632508e+000	6.420374e+001
3830000000	-1.116286e+001	1.221309e+002	4.498896e-002	9.529488e+001	-8.012384e+000	6.492999e+001	-6.445460e+000	5.155695e+001
3840000000	-1.420028e+001	1.039243e+002	-2.232857e-001	8.497066e+001	-8.938608e+000	5.292731e+001	-9.120234e+000	4.066665e+001
3850000000	-1.723927e+001	4.608061e+001	-5.721275e-001	7.635825e+001	-1.014012e+001	4.684513e+001	-1.342460e+001	3.824533e+001
3860000000	-1.195102e+001	-9.672334e+000	-8.196511e-001	6.840120e+001	-1.043514e+001	4.630269e+001	-1.809189e+001	5.204886e+001
3870000000	-7.415632e+000	-3.140101e+001	-1.088173e+000	6.059669e+001	-9.520607e+000	4.161556e+001	-1.992763e+001	6.980284e+001
3880000000	-5.166058e+000	-4.299279e+001	-1.346010e+000	5.409566e+001	-8.674511e+000	2.924672e+001	-2.136831e+001	6.197445e+001
3890000000	-4.487999e+000	-4.813028e+001	-1.315042e+000	4.875807e+001	-8.540954e+000	1.381653e+001	-2.343332e+001	2.133099e+001
3900000000	-4.843142e+000	-4.639590e+001	-8.687671e-001	4.230256e+001	-8.984073e+000	-9.308665e-001	-1.984723e+001	-3.572014e+001
3910000000	-5.468751e+000	-3.545286e+001	-2.395911e-001	3.279779e+001	-9.582383e+000	-1.387862e+001	-1.444150e+001	-7.046402e+001
3920000000	-4.990260e+000	-1.949195e+001	1.978967e-001	2.002353e+001	-1.019503e+001	-2.772721e+001	-1.099109e+001	-9.914073e+001
3930000000	-3.863088e+000	-1.030929e+001	1.717356e-001	5.905051e+000	-1.145647e+001	-4.235904e+001	-9.866939e+000	-1.267259e+002
3940000000	-3.667207e+000	-5.455663e+000	-1.664503e-001	-7.108895e+000	-1.324791e+001	-5.109139e+001	-1.093949e+001	-1.521571e+002
3950000000	-4.414915e+000	4.155311e+000	-4.580483e-001	-1.934121e+001	-1.423350e+001	-5.523757e+001	-1.444978e+001	-1.780262e+002
3960000000	-4.472473e+000	2.299199e+001	-7.063090e-001	-3.361800e+001	-1.495694e+001	-6.357099e+001	-2.321100e+001	1.360161e+002
3970000000	-2.717216e+000	3.627446e+001	-1.534568e+000	-5.019344e+001	-1.628710e+001	-6.724766e+001	-2.200901e+001	1.646611e+001
3980000000	-1.348351e+000	3.869233e+001	-3.077939e+000	-6.429887e+001	-1.592802e+001	-6.736918e+001	-1.531161e+001	1.634123e+000
3990000000	-8.018239e-001	3.823059e+001	-4.778807e+000	-7.394264e+001	-1.501111e+001	-7.854374e+001	-1.067748e+001	-1.400515e+000
4000000000	-6.884106e-001	3.649015e+001	-6.251651e+000	-8.052138e+001	-1.484223e+001	-9.568455e+001	-7.420988e+000	-5.992326e+000
4010000000	-8.916891e-001	3.228911e+001	-7.371595e+000	-8.609092e+001	-1.544425e+001	-1.152711e+002	-5.213623e+000	-1.000922e+001
4020000000	-1.561366e+000	2.481282e+001	-8.273485e+000	-9.225838e+001	-1.694994e+001	-1.357219e+002	-3.665567e+000	-1.283088e+001
4030000000	-2.816403e+000	1.447803e+001	-9.165107e+000	-9.926149e+001	-1.957724e+001	-1.539305e+002	-2.553866e+000	-1.463727e+001
4040000000	-4.426864e+000	2.132246e+000	-1.015224e+001	-1.062181e+002	-2.318849e+001	-1.644483e+002	-1.763886e+000	-1.557726e+001
4050000000	-5.758503e+000	-1.210014e+001	-1.117249e+001	-1.125370e+002	-2.677157e+001	-1.616892e+002	-1.182950e+000	-1.567168e+001
4060000000	-6.091592e+000	-2.726495e+001	-1.213172e+001	-1.183477e+002	-2.835178e+001	-1.495275e+002	-7.071912e-001	-1.537936e+001
4070000000	-5.152075e+000	-4.063182e+001	-1.297397e+001	-1.241062e+002	-2.787859e+001	-1.436277e+002	-2.927161e-001	-1.524733e+001
4080000000	-3.403653e+000	-5.102814e+001	-1.371602e+001	-1.304760e+002	-2.692992e+001	-1.480836e+002	4.850623e-002	-1.566260e+001
4090000000	-1.506584e+000	-5.965577e+001	-1.449812e+001	-1.387881e+002	-2.636464e+001	-1.606501e+002	2.932476e-001	-1.677284e+001
4100000000	-5.955787e-002	-6.722918e+001	-1.570947e+001	-1.483228e+002	-2.667280e+001	-1.783374e+002	4.038357e-001	-1.866867e+001
4110000000	6.802824e-001	-7.230893e+001	-1.747686e+001	-1.562256e+002	-2.809732e+001	1.621611e+002	3.335273e-001	-2.118729e+001
4120000000	9.676019e-001	-7.304612e+001	-1.948618e+001	-1.593135e+002	-3.050315e+001	1.444072e+002	5.320961e-002	-2.371309e+001
4130000000	1.175014e+000	-6.981590e+001	-2.116058e+001	-1.579655e+002	-3.378057e+001	1.291417e+002	-4.178325e-001	-2.581683e+001
4140000000	1.544595e+000	-6.430028e+001	-2.209329e+001	-1.544149e+002	-3.840937e+001	1.165290e+002	-1.042368e+000	-2.714419e+001
4150000000	2.139936e+000	-5.852417e+001	-2.232725e+001	-1.524947e+002	-4.684782e+001	1.184184e+002	-1.770026e+000	-2.767580e+001
4160000000	2.870000e+000	-5.442363e+001	-2.223930e+001	-1.545270e+002	-4.789894e+001	-1.509950e+002	-2.578456e+000	-2.751536e+001
4170000000	3.455887e+000	-5.348463e+001	-2.229662e+001	-1.603270e+002	-4.079584e+001	-1.516687e+002	-3.442032e+000	-2.706064e+001
4180000000	3.464521e+000	-5.530331e+001	-2.287408e+001	-1.686428e+002	-3.825367e+001	-1.699525e+002	-4.345369e+000	-2.676843e+001
4190000000	2.682028e+000	-5.709502e+001	-2.395632e+001	-1.754621e+002	-3.793367e+001	1.712477e+002	-5.289567e+000	-2.726385e+001
4200000000	1.372833e+000	-5.643112e+001	-2.522725e+001	-1.788595e+002	-3.866065e+001	1.562324e+002	-6.257436e+000	-2.935253e+001
4210000000	-8.551559e-002	-5.353142e+001	-2.625495e+001	-1.789976e+002	-3.975719e+001	1.436714e+002	-7.262911e+000	-3.405740e+001
4220000000	-1.478011e+000	-5.058703e+001	-2.677503e+001	-1.789118e+002	-4.108226e+001	1.327256e+002	-8.140772e+000	-4.219364e+001
4230000000	-2.776227e+000	-5.034961e+001	-2.694665e+001	1.793495e+002	-4.269944e+001	1.209494e+002	-8.682670e+000	-5.390912e+001
4240000000	-4.029391e+000	-5.601097e+001	-2.696257e+001	1.745535e+002	-4.519555e+001	1.100198e+002	-8.634875e+000	-6.780074e+001
4250000000	-5.202841e+000	-7.021768e+001	-2.733838e+001	1.669682e+002	-4.895386e+001	1.100263e+002	-8.001317e+000	-8.121299e+001
4260000000	-5.895239e+000	-9.147284e+001	-2.827200e+001	1.600254e+002	-5.034634e+001	1.296192e+002	-7.067484e+000	-9.212417e+001
4270000000	-5.608228e+000	-1.112891e+002	-2.958646e+001	1.561109e+002	-4.875578e+001	1.327470e+002	-6.095731e+000	-1.000539e+002
4280000000	-4.609416e+000	-1.225804e+002	-3.079306e+001	1.554063e+002	-4.811926e+001	1.232287e+002	-5.227728e+000	-1.054529e+002
4290000000	-3.271727e+000	-1.259235e+002	-3.128874e+001	1.577108e+002	-4.837361e+001	1.118913e+002	-4.496010e+000	-1.088044e+002
4300000000	-1.736634e+000	-1.247429e+002	-3.133644e+001	1.595687e+002	-4.897968e+001	9.965292e+001	-3.892513e+000	-1.106141e+002
4310000000	-4.408465e-002	-1.222999e+002	-3.080625e+001	1.585528e+002	-4.989276e+001	8.479708e+001	-3.416379e+000	-1.112710e+002
4320000000	1.659464e+000	-1.214876e+002	-3.018738e+001	1.527294e+002	-5.135615e+001	6.592380e+001	-3.002695e+000	-1.111003e+002
4330000000	2.979577e+000	-1.238150e+002	-2.973025e+001	1.415951e+002	-5.413792e+001	4.190657e+001	-2.621830e+000	-1.102027e+002
4340000000	3.455883e+000	-1.274187e+002	-3.017380e+001	1.285714e+002	-5.995075e+001	1.301480e+001	-2.259871e+000	-1.087714e+002
4350000000	3.137572e+000	-1.281895e+002	-3.150695e+001	1.169386e+002	-7.536563e+001	-3.792568e+001	-1.907073e+000	-1.068838e+002
4360000000	2.543307e+000	-1.244572e+002	-3.317679e+001	1.101634e+002	-6.720075e+001	1.655460e+002	-1.562177e+000	-1.046182e+002
4370000000	2.094040e+000	-1.173835e+002	-3.485738e+001	1.086295e+002	-6.236958e+001	1.434108e+002	-1.218386e+000	-1.020424e+002
4380000000	1.961744e+000	-1.089359e+002	-3.634915e+001	1.102807e+002	-6.070564e+001	1.262261e+002	-8.708361e-001	-9.931649e+001
4390000000	2.158821e+000	-1.009617e+002	-3.712561e+001	1.167035e+002	-6.021533e+001	1.110232e+002	-5.358927e-001	-9.646578e+001
4400000000	2.561455e+000	-9.546687e+001	-3.689292e+001	1.220616e+002	-6.034046e+001	9.525667e+001	-2.225975e-001	-9.368986e+001
4410000000	2.831492e+000	-9.396906e+001	-3.587427e+001	1.243094e+002	-6.129333e+001	7.616389e+001	5.497238e-002	-9.120956e+001
4420000000	2.453615e+000	-9.593323e+001	-3.487235e+001	1.194391e+002	-6.371291e+001	5.336392e+001	2.713433e-001	-8.917413e+001
4430000000	1.161571e+000	-9.810272e+001	-3.442626e+001	1.116090e+002	-6.823342e+001	3.383202e+001	4.011384e-001	-8.774247e+001
4440000000	-7.433683e-001	-9.793387e+001	-3.424803e+001	1.044719e+002	-7.550037e+001	1.821882e+001	4.097308e-001	-8.694945e+001
4450000000	-2.860806e+000	-9.649053e+001	-3.407182e+001	9.888829e+001	-9.129781e+001	1.087047e+001	2.585160e-001	-8.672147e+001
4460000000	-5.006234e+000	-9.720736e+001	-3.372755e+001	9.185056e+001	-8.632990e+001	-1.640766e+002	-8.480134e-002	-8.695192e+001
4470000000	-6.987023e+000	-1.055193e+002	-3.351034e+001	8.333692e+001	-7.921709e+001	-1.439328e+002	-6.359348e-001	-8.746487e+001
4480000000	-7.970840e+000	-1.268324e+002	-3.352748e+001	7.222170e+001	-7.241331e+001	-1.356267e+002	-1.389593e+000	-8.800822e+001
4490000000	-6.761284e+000	-1.545911e+002	-3.407038e+001	6.052111e+001	-6.701893e+001	-1.473830e+002	-2.323780e+000	-8.843854e+001
4500000000	-4.573816e+000	-1.742481e+002	-3.525284e+001	5.144520e+001	-6.373661e+001	-1.674807e+002	-3.415607e+000	-8.868156e+001
4510000000	-2.884467e+000	1.769503e+002	-3.689111e+001	4.712896e+001	-6.232174e+001	1.703519e+002	-4.602718e+000	-8.884654e+001
