!Agilent Technologies,E5071C,MY46520292,B.13.20
!Date: Sun Dec 10 03:13:09 2023
!Data & Calibration Information:
!Freq	S11:SOLT2(ON)	S21:SOLT2(ON)	S12:SOLT2(ON)	S22:SOLT2(ON)
!PortZ  Port1:50+j0    Port2:50+j0
!Above PortZ is port z conversion or system Z0 setting when saving the data.
!When reading, reference impedance value at option line is always used.
# Hz S dB R 50
2500000000	-2.228064e+000	-9.166972e+000	-4.427681e+001	-1.184478e+002	-3.924830e+001	-1.015783e+002	1.743000e-001	-4.863733e+000
2510000000	-2.576146e+000	-9.430850e+000	-4.463616e+001	-1.137157e+002	-3.922771e+001	-1.019333e+002	3.328550e-001	-5.387726e+000
2520000000	-2.888249e+000	-9.151858e+000	-4.438638e+001	-1.101200e+002	-3.923630e+001	-1.030613e+002	4.533871e-001	-5.475160e+000
2530000000	-3.146637e+000	-8.579051e+000	-4.398653e+001	-1.096102e+002	-3.951270e+001	-1.017532e+002	5.388104e-001	-5.279591e+000
2540000000	-3.333746e+000	-7.868906e+000	-4.337221e+001	-1.090194e+002	-3.964577e+001	-1.023863e+002	5.850451e-001	-5.010216e+000
2550000000	-3.454762e+000	-7.185783e+000	-4.312890e+001	-1.121166e+002	-3.964726e+001	-1.031968e+002	5.966444e-001	-4.855850e+000
2560000000	-3.484348e+000	-6.719446e+000	-4.297300e+001	-1.164764e+002	-3.973122e+001	-1.048474e+002	5.832130e-001	-4.941392e+000
2570000000	-3.429858e+000	-6.527295e+000	-4.319241e+001	-1.198220e+002	-4.000027e+001	-1.057538e+002	5.413879e-001	-5.322777e+000
2580000000	-3.280948e+000	-6.739916e+000	-4.352059e+001	-1.215728e+002	-4.015438e+001	-1.065065e+002	4.715980e-001	-6.087033e+000
2590000000	-3.050557e+000	-7.383726e+000	-4.370143e+001	-1.206230e+002	-4.009589e+001	-1.086771e+002	3.698578e-001	-7.111628e+000
2600000000	-2.758471e+000	-8.503401e+000	-4.406037e+001	-1.182775e+002	-4.029417e+001	-1.117340e+002	2.368421e-001	-8.350170e+000
2610000000	-2.417928e+000	-1.003953e+001	-4.349158e+001	-1.153128e+002	-4.040075e+001	-1.142340e+002	7.474523e-002	-9.698506e+000
2620000000	-2.055388e+000	-1.196319e+001	-4.294162e+001	-1.161143e+002	-4.064379e+001	-1.191367e+002	-1.135694e-001	-1.099552e+001
2630000000	-1.699281e+000	-1.417231e+001	-4.242932e+001	-1.187133e+002	-4.103814e+001	-1.217070e+002	-3.151776e-001	-1.223584e+001
2640000000	-1.366954e+000	-1.661882e+001	-4.189795e+001	-1.227095e+002	-4.153900e+001	-1.244892e+002	-5.259237e-001	-1.335718e+001
2650000000	-1.087429e+000	-1.915829e+001	-4.155267e+001	-1.276818e+002	-4.190691e+001	-1.263928e+002	-7.233643e-001	-1.440182e+001
2660000000	-8.638469e-001	-2.178273e+001	-4.180951e+001	-1.319437e+002	-4.229490e+001	-1.257468e+002	-9.040471e-001	-1.548049e+001
2670000000	-7.019944e-001	-2.441165e+001	-4.214841e+001	-1.358245e+002	-4.238063e+001	-1.263766e+002	-1.053910e+000	-1.673588e+001
2680000000	-6.079838e-001	-2.701706e+001	-4.241465e+001	-1.373804e+002	-4.212256e+001	-1.258786e+002	-1.176246e+000	-1.828303e+001
2690000000	-5.740178e-001	-2.956179e+001	-4.244158e+001	-1.360585e+002	-4.185515e+001	-1.254637e+002	-1.269547e+000	-2.031719e+001
2700000000	-6.055537e-001	-3.199639e+001	-4.213131e+001	-1.363732e+002	-4.139225e+001	-1.295329e+002	-1.338989e+000	-2.279338e+001
2710000000	-6.838005e-001	-3.418938e+001	-4.186292e+001	-1.389987e+002	-4.095615e+001	-1.338419e+002	-1.376940e+000	-2.577062e+001
2720000000	-8.054132e-001	-3.611508e+001	-4.145717e+001	-1.432517e+002	-4.090093e+001	-1.389094e+002	-1.396780e+000	-2.909360e+001
2730000000	-9.560029e-001	-3.759974e+001	-4.140812e+001	-1.491917e+002	-4.098230e+001	-1.444051e+002	-1.403437e+000	-3.257462e+001
2740000000	-1.105705e+000	-3.862235e+001	-4.172235e+001	-1.542382e+002	-4.140531e+001	-1.488861e+002	-1.387239e+000	-3.593598e+001
2750000000	-1.247145e+000	-3.917344e+001	-4.241515e+001	-1.570458e+002	-4.190675e+001	-1.509166e+002	-1.347759e+000	-3.897893e+001
2760000000	-1.361795e+000	-3.921588e+001	-4.278927e+001	-1.577487e+002	-4.203207e+001	-1.521204e+002	-1.294780e+000	-4.149145e+001
2770000000	-1.439384e+000	-3.891254e+001	-4.318169e+001	-1.564189e+002	-4.228253e+001	-1.524493e+002	-1.216303e+000	-4.346783e+001
2780000000	-1.469094e+000	-3.840128e+001	-4.384768e+001	-1.558287e+002	-4.225090e+001	-1.529774e+002	-1.115798e+000	-4.493328e+001
2790000000	-1.457571e+000	-3.785157e+001	-4.369057e+001	-1.529920e+002	-4.214800e+001	-1.530347e+002	-1.000848e+000	-4.607005e+001
2800000000	-1.405238e+000	-3.744121e+001	-4.329183e+001	-1.503282e+002	-4.182167e+001	-1.544595e+002	-8.791398e-001	-4.700878e+001
2810000000	-1.312793e+000	-3.737207e+001	-4.256418e+001	-1.496350e+002	-4.148921e+001	-1.574987e+002	-7.495299e-001	-4.798524e+001
2820000000	-1.194048e+000	-3.782013e+001	-4.200525e+001	-1.528594e+002	-4.125813e+001	-1.587882e+002	-6.322150e-001	-4.917280e+001
2830000000	-1.066581e+000	-3.891988e+001	-4.158285e+001	-1.557869e+002	-4.112974e+001	-1.623493e+002	-5.381635e-001	-5.070426e+001
2840000000	-9.395643e-001	-4.067563e+001	-4.095100e+001	-1.587789e+002	-4.083294e+001	-1.647843e+002	-4.713103e-001	-5.257735e+001
2850000000	-8.206072e-001	-4.303946e+001	-4.077558e+001	-1.651614e+002	-4.055853e+001	-1.695078e+002	-4.294784e-001	-5.478463e+001
2860000000	-7.258789e-001	-4.583317e+001	-4.107959e+001	-1.693721e+002	-4.067556e+001	-1.727977e+002	-4.134990e-001	-5.708880e+001
2870000000	-6.470750e-001	-4.883618e+001	-4.115289e+001	-1.733990e+002	-4.082175e+001	-1.761754e+002	-4.114337e-001	-5.936226e+001
2880000000	-5.911044e-001	-5.175953e+001	-4.154911e+001	-1.765748e+002	-4.116261e+001	-1.794128e+002	-4.147700e-001	-6.142983e+001
2890000000	-5.485089e-001	-5.449301e+001	-4.175433e+001	-1.771392e+002	-4.171801e+001	1.797195e+002	-4.122237e-001	-6.317099e+001
2900000000	-5.172136e-001	-5.686213e+001	-4.201561e+001	-1.775361e+002	-4.193223e+001	1.799286e+002	-4.049248e-001	-6.455708e+001
2910000000	-4.858949e-001	-5.885858e+001	-4.180847e+001	-1.754536e+002	-4.177949e+001	-1.784049e+002	-3.849507e-001	-6.568308e+001
2920000000	-4.569278e-001	-6.049222e+001	-4.136369e+001	-1.774820e+002	-4.140160e+001	-1.766753e+002	-3.576162e-001	-6.668553e+001
2930000000	-4.252581e-001	-6.191538e+001	-4.074350e+001	-1.796670e+002	-4.075699e+001	-1.787076e+002	-3.288401e-001	-6.770065e+001
2940000000	-3.946367e-001	-6.324315e+001	-4.026612e+001	1.761188e+002	-4.029294e+001	1.777672e+002	-2.990864e-001	-6.894258e+001
2950000000	-3.613407e-001	-6.458528e+001	-3.994201e+001	1.706398e+002	-3.969738e+001	1.727749e+002	-2.576549e-001	-7.053177e+001
2960000000	-3.567766e-001	-6.606224e+001	-3.989755e+001	1.639135e+002	-3.951922e+001	1.660196e+002	-2.437832e-001	-7.219460e+001
2970000000	-3.532225e-001	-6.755266e+001	-4.040106e+001	1.587873e+002	-3.993677e+001	1.582957e+002	-2.289636e-001	-7.382905e+001
2980000000	-3.451013e-001	-6.902712e+001	-4.103409e+001	1.562181e+002	-4.073739e+001	1.558628e+002	-2.122106e-001	-7.544961e+001
2990000000	-3.437614e-001	-7.049146e+001	-4.171371e+001	1.571330e+002	-4.145267e+001	1.549246e+002	-1.994251e-001	-7.704955e+001
3000000000	-3.426866e-001	-7.197806e+001	-4.184307e+001	1.596981e+002	-4.171206e+001	1.581508e+002	-1.987075e-001	-7.867965e+001
3010000000	-3.434076e-001	-7.345455e+001	-4.149251e+001	1.616158e+002	-4.151767e+001	1.596931e+002	-2.009887e-001	-8.032543e+001
3020000000	-3.579096e-001	-7.498150e+001	-4.062171e+001	1.610353e+002	-4.082477e+001	1.616603e+002	-2.105973e-001	-8.199605e+001
3030000000	-3.741628e-001	-7.649444e+001	-3.987101e+001	1.587322e+002	-3.998419e+001	1.593572e+002	-2.272793e-001	-8.373703e+001
3040000000	-3.877873e-001	-7.811562e+001	-3.919229e+001	1.528774e+002	-3.933341e+001	1.553186e+002	-2.366170e-001	-8.547220e+001
3050000000	-4.000755e-001	-7.977209e+001	-3.888095e+001	1.467008e+002	-3.872123e+001	1.490180e+002	-2.428770e-001	-8.728392e+001
3060000000	-4.612026e-001	-8.143819e+001	-3.892071e+001	1.402379e+002	-3.874211e+001	1.421177e+002	-2.897428e-001	-8.894050e+001
3070000000	-5.052854e-001	-8.278287e+001	-3.924577e+001	1.364378e+002	-3.905357e+001	1.354764e+002	-3.415155e-001	-9.066559e+001
3080000000	-4.948070e-001	-8.401982e+001	-3.966132e+001	1.325432e+002	-3.961733e+001	1.314247e+002	-3.774152e-001	-9.256096e+001
3090000000	-4.248175e-001	-8.542470e+001	-3.983545e+001	1.328555e+002	-4.010696e+001	1.296061e+002	-3.910120e-001	-9.469999e+001
3100000000	-3.103402e-001	-8.716993e+001	-3.975340e+001	1.333112e+002	-4.020873e+001	1.304286e+002	-3.743594e-001	-9.702268e+001
3110000000	-1.848986e-001	-8.923776e+001	-3.944924e+001	1.326591e+002	-4.007157e+001	1.302836e+002	-3.197684e-001	-9.938109e+001
3120000000	-8.619526e-002	-9.147332e+001	-3.906940e+001	1.324342e+002	-3.979666e+001	1.297057e+002	-2.404725e-001	-1.015998e+002
3130000000	-2.258348e-002	-9.367671e+001	-3.835279e+001	1.297887e+002	-3.912816e+001	1.280300e+002	-1.355793e-001	-1.036114e+002
3140000000	-1.504894e-002	-9.543816e+001	-3.777017e+001	1.270946e+002	-3.857095e+001	1.236806e+002	-3.539807e-002	-1.052195e+002
3150000000	-4.251962e-002	-9.675632e+001	-3.735487e+001	1.224494e+002	-3.832033e+001	1.189776e+002	5.134527e-002	-1.064150e+002
3160000000	-1.000099e-001	-9.766510e+001	-3.707409e+001	1.184582e+002	-3.803852e+001	1.145849e+002	1.175593e-001	-1.071821e+002
3170000000	-1.991391e-001	-9.843273e+001	-3.670923e+001	1.145559e+002	-3.790779e+001	1.107303e+002	1.571715e-001	-1.076845e+002
3180000000	-3.419938e-001	-9.918651e+001	-3.638534e+001	1.106555e+002	-3.777198e+001	1.070469e+002	1.629663e-001	-1.080811e+002
3190000000	-5.369176e-001	-1.001003e+002	-3.627880e+001	1.069704e+002	-3.757750e+001	1.042896e+002	1.318694e-001	-1.085647e+002
3200000000	-7.635878e-001	-1.012875e+002	-3.609433e+001	1.038892e+002	-3.741846e+001	1.007507e+002	6.203698e-002	-1.092731e+002
3210000000	-1.005308e+000	-1.031495e+002	-3.596116e+001	1.016435e+002	-3.710760e+001	9.774019e+001	-2.671533e-002	-1.103360e+002
3220000000	-1.215190e+000	-1.058597e+002	-3.564117e+001	1.005600e+002	-3.683875e+001	9.469226e+001	-1.418780e-001	-1.118636e+002
3230000000	-1.364858e+000	-1.095582e+002	-3.523263e+001	9.953232e+001	-3.655174e+001	9.225035e+001	-2.833719e-001	-1.139207e+002
3240000000	-1.438717e+000	-1.141848e+002	-3.457968e+001	9.771834e+001	-3.627491e+001	8.984996e+001	-4.482041e-001	-1.164110e+002
3250000000	-1.438011e+000	-1.194341e+002	-3.384469e+001	9.621288e+001	-3.581159e+001	8.763702e+001	-6.329102e-001	-1.192323e+002
3260000000	-1.378922e+000	-1.246877e+002	-3.298050e+001	9.281438e+001	-3.523313e+001	8.526733e+001	-8.290178e-001	-1.222671e+002
3270000000	-1.244607e+000	-1.292665e+002	-3.216247e+001	8.768900e+001	-3.447944e+001	8.253738e+001	-1.043208e+000	-1.253385e+002
3280000000	-1.037775e+000	-1.328107e+002	-3.151767e+001	8.215443e+001	-3.368431e+001	7.749419e+001	-1.266608e+000	-1.283683e+002
3290000000	-7.598321e-001	-1.354051e+002	-3.121043e+001	7.612457e+001	-3.305100e+001	7.179283e+001	-1.491862e+000	-1.313644e+002
3300000000	-4.215060e-001	-1.373100e+002	-3.100562e+001	7.147831e+001	-3.264615e+001	6.525593e+001	-1.710243e+000	-1.344445e+002
3310000000	-9.874716e-002	-1.388902e+002	-3.088756e+001	6.972882e+001	-3.249732e+001	5.979456e+001	-1.910319e+000	-1.377190e+002
3320000000	1.672857e-001	-1.405072e+002	-3.062432e+001	6.818938e+001	-3.247569e+001	5.523245e+001	-2.080577e+000	-1.414089e+002
3330000000	3.235036e-001	-1.422331e+002	-3.012078e+001	6.773584e+001	-3.243708e+001	5.252502e+001	-2.204365e+000	-1.455220e+002
3340000000	3.632471e-001	-1.438321e+002	-2.934285e+001	6.761812e+001	-3.226675e+001	5.090609e+001	-2.255874e+000	-1.501058e+002
3350000000	3.050418e-001	-1.451190e+002	-2.829772e+001	6.623117e+001	-3.190206e+001	5.141903e+001	-2.238505e+000	-1.551092e+002
3360000000	1.784736e-001	-1.462139e+002	-2.707506e+001	6.343113e+001	-3.112224e+001	5.209315e+001	-2.140163e+000	-1.604369e+002
3370000000	5.031027e-002	-1.474463e+002	-2.589155e+001	5.802146e+001	-2.991937e+001	5.112910e+001	-1.967125e+000	-1.656850e+002
3380000000	-9.021086e-002	-1.493098e+002	-2.499217e+001	5.060505e+001	-2.860108e+001	4.704692e+001	-1.740556e+000	-1.705574e+002
3390000000	-2.886424e-001	-1.520402e+002	-2.450712e+001	4.338887e+001	-2.747994e+001	3.996168e+001	-1.474897e+000	-1.749573e+002
3400000000	-6.179992e-001	-1.557516e+002	-2.428143e+001	3.769245e+001	-2.669054e+001	3.204230e+001	-1.188746e+000	-1.787712e+002
3410000000	-1.085869e+000	-1.601615e+002	-2.414998e+001	3.455667e+001	-2.628508e+001	2.450591e+001	-9.138126e-001	1.779133e+002
3420000000	-1.650954e+000	-1.648591e+002	-2.382850e+001	3.331947e+001	-2.607855e+001	1.827978e+001	-6.446620e-001	1.749721e+002
3430000000	-2.206141e+000	-1.699255e+002	-2.320854e+001	3.344857e+001	-2.596471e+001	1.387888e+001	-3.885786e-001	1.721881e+002
3440000000	-2.595080e+000	-1.757828e+002	-2.221219e+001	3.341431e+001	-2.578751e+001	1.141557e+001	-1.637793e-001	1.694206e+002
3450000000	-2.712753e+000	1.771425e+002	-2.085095e+001	3.178963e+001	-2.543762e+001	1.126000e+001	1.622954e-002	1.664544e+002
3460000000	-2.509358e+000	1.688081e+002	-1.935806e+001	2.756699e+001	-2.453422e+001	1.222653e+001	1.128841e-001	1.632399e+002
3470000000	-2.069296e+000	1.595055e+002	-1.795750e+001	2.041979e+001	-2.298658e+001	1.145486e+001	1.303977e-001	1.597859e+002
3480000000	-1.534008e+000	1.503526e+002	-1.690599e+001	1.145515e+001	-2.115711e+001	5.570548e+000	6.487936e-002	1.561772e+002
3490000000	-1.037714e+000	1.425532e+002	-1.625864e+001	2.375586e+000	-1.965747e+001	-4.805063e+000	-9.007461e-002	1.525135e+002
3500000000	-6.056328e-001	1.369612e+002	-1.593238e+001	-5.142208e+000	-1.871837e+001	-1.726893e+001	-3.340903e-001	1.488638e+002
3510000000	-2.032869e-001	1.334664e+002	-1.569002e+001	-1.035744e+001	-1.837831e+001	-2.975718e+001	-6.654572e-001	1.452753e+002
3520000000	2.034802e-001	1.313130e+002	-1.530766e+001	-1.374206e+001	-1.855634e+001	-4.072323e+001	-1.078253e+000	1.417532e+002
3530000000	5.757091e-001	1.293736e+002	-1.466156e+001	-1.611110e+001	-1.920492e+001	-4.855380e+001	-1.564111e+000	1.381692e+002
3540000000	7.908895e-001	1.267481e+002	-1.373401e+001	-1.877844e+001	-2.008992e+001	-5.019071e+001	-2.114429e+000	1.342440e+002
3550000000	6.941397e-001	1.232061e+002	-1.260874e+001	-2.251219e+001	-2.027871e+001	-4.366304e+001	-2.729367e+000	1.295828e+002
3560000000	1.893953e-001	1.192747e+002	-1.136169e+001	-2.758892e+001	-1.864680e+001	-3.634891e+001	-3.398172e+000	1.239403e+002
3570000000	-6.840339e-001	1.154383e+002	-1.007163e+001	-3.410230e+001	-1.599497e+001	-3.809211e+001	-4.093494e+000	1.167296e+002
3580000000	-1.765515e+000	1.112724e+002	-8.795088e+000	-4.257112e+001	-1.352562e+001	-4.855168e+001	-4.704097e+000	1.075477e+002
3590000000	-2.886369e+000	1.050722e+002	-7.719805e+000	-5.294726e+001	-1.175156e+001	-6.457287e+001	-5.044442e+000	9.579883e+001
3600000000	-3.938823e+000	9.413946e+001	-7.000498e+000	-6.422683e+001	-1.095745e+001	-8.329892e+001	-5.051371e+000	8.099703e+001
3610000000	-4.786043e+000	7.658455e+001	-6.650488e+000	-7.482229e+001	-1.127967e+001	-1.007195e+002	-4.862247e+000	6.450951e+001
3620000000	-5.102138e+000	5.416432e+001	-6.519803e+000	-8.344564e+001	-1.245731e+001	-1.116285e+002	-4.632335e+000	4.912076e+001
3630000000	-4.786139e+000	3.249593e+001	-6.376236e+000	-8.962046e+001	-1.343096e+001	-1.122976e+002	-4.445699e+000	3.653612e+001
3640000000	-4.152015e+000	1.613725e+001	-5.935587e+000	-9.384066e+001	-1.281708e+001	-1.084773e+002	-4.388452e+000	2.702047e+001
3650000000	-3.538025e+000	5.381482e+000	-5.029994e+000	-9.819076e+001	-1.097286e+001	-1.106743e+002	-4.569330e+000	2.070870e+001
3660000000	-3.126414e+000	-1.250991e+000	-3.785983e+000	-1.048966e+002	-9.022963e+000	-1.207616e+002	-4.903641e+000	1.907016e+001
3670000000	-2.924104e+000	-4.815020e+000	-2.519735e+000	-1.148937e+002	-7.598185e+000	-1.363241e+002	-4.732634e+000	2.181470e+001
3680000000	-2.771716e+000	-6.994748e+000	-1.493264e+000	-1.276232e+002	-6.936848e+000	-1.543171e+002	-3.724254e+000	2.158493e+001
3690000000	-2.843508e+000	-1.077977e+001	-9.081190e-001	-1.420593e+002	-7.105321e+000	-1.721243e+002	-3.025094e+000	1.416985e+001
3700000000	-3.670147e+000	-1.611623e+001	-8.682199e-001	-1.559060e+002	-8.011954e+000	1.739102e+002	-3.495980e+000	4.327296e+000
3710000000	-5.501950e+000	-2.073802e+001	-1.100314e+000	-1.669388e+002	-8.964943e+000	1.666258e+002	-5.147833e+000	-2.013902e+000
3720000000	-8.624832e+000	-2.336602e+001	-1.192558e+000	-1.756494e+002	-9.066332e+000	1.630334e+002	-7.623780e+000	1.053516e+000
3730000000	-1.457620e+001	-1.907534e+001	-1.035818e+000	1.755399e+002	-8.394686e+000	1.559318e+002	-9.103940e+000	2.014329e+001
3740000000	-2.212714e+001	6.432860e+001	-9.216479e-001	1.653976e+002	-7.926084e+000	1.433416e+002	-7.430147e+000	3.553463e+001
3750000000	-1.307222e+001	1.047289e+002	-1.060371e+000	1.555903e+002	-8.230328e+000	1.298105e+002	-5.825795e+000	3.472599e+001
3760000000	-9.145850e+000	1.076773e+002	-1.209097e+000	1.475952e+002	-9.026600e+000	1.199688e+002	-5.661942e+000	2.950823e+001
3770000000	-7.134000e+000	1.074918e+002	-1.129481e+000	1.402529e+002	-9.628737e+000	1.151070e+002	-6.803542e+000	2.715718e+001
3780000000	-6.216860e+000	1.057604e+002	-9.074245e-001	1.318220e+002	-9.405047e+000	1.116428e+002	-8.728038e+000	3.525049e+001
3790000000	-6.345215e+000	1.040355e+002	-7.890570e-001	1.224478e+002	-8.665304e+000	1.038969e+002	-8.988889e+000	5.529540e+001
3800000000	-7.287233e+000	1.053534e+002	-7.655328e-001	1.135319e+002	-8.169976e+000	9.224483e+001	-7.168538e+000	6.533989e+001
3810000000	-8.445261e+000	1.097409e+002	-6.294412e-001	1.048503e+002	-8.025776e+000	7.961754e+001	-5.819909e+000	6.270670e+001
3820000000	-9.591470e+000	1.123521e+002	-4.294100e-001	9.490057e+001	-8.114313e+000	6.646171e+001	-5.721742e+000	5.335832e+001
3830000000	-1.145787e+001	1.063453e+002	-4.527665e-001	8.374907e+001	-8.602599e+000	5.287075e+001	-7.286237e+000	4.121560e+001
3840000000	-1.509586e+001	8.174289e+001	-7.378455e-001	7.352329e+001	-9.647494e+000	4.182392e+001	-1.080269e+001	3.178793e+001
3850000000	-1.602083e+001	1.732684e+001	-9.985154e-001	6.480269e+001	-1.064888e+001	3.722600e+001	-1.636944e+001	3.286759e+001
3860000000	-1.060662e+001	-2.512353e+001	-1.139984e+000	5.622853e+001	-1.047085e+001	3.559307e+001	-2.226858e+001	6.187214e+001
3870000000	-6.999417e+000	-4.390555e+001	-1.294433e+000	4.761660e+001	-9.405573e+000	2.730517e+001	-2.330878e+001	9.108041e+001
3880000000	-5.580763e+000	-5.426359e+001	-1.381465e+000	3.986265e+001	-8.774143e+000	1.216506e+001	-2.704216e+001	9.174500e+001
3890000000	-5.799211e+000	-5.722786e+001	-1.182322e+000	3.209655e+001	-8.927830e+000	-4.313342e+000	-3.766534e+001	-7.455768e+001
3900000000	-7.085905e+000	-4.895483e+001	-7.456911e-001	2.212706e+001	-9.474148e+000	-1.858630e+001	-2.006010e+001	-1.011822e+002
3910000000	-7.444078e+000	-2.606932e+001	-4.236210e-001	9.106366e+000	-9.825519e+000	-3.213634e+001	-1.400410e+001	-1.237217e+002
3920000000	-5.570502e+000	-7.566045e+000	-5.031805e-001	-5.325859e+000	-1.029831e+001	-4.918171e+001	-1.155984e+001	-1.512674e+002
3930000000	-4.068439e+000	6.970405e-001	-8.648523e-001	-1.899311e+001	-1.157542e+001	-6.717831e+001	-1.156227e+001	1.781723e+002
3940000000	-3.363903e+000	9.455793e+000	-1.193067e+000	-3.224653e+001	-1.344258e+001	-8.238206e+001	-1.331871e+001	1.400467e+002
3950000000	-2.253375e+000	2.035661e+001	-1.532614e+000	-4.787961e+001	-1.592828e+001	-9.536941e+001	-1.515716e+001	8.463587e+001
3960000000	-7.279020e-001	2.479184e+001	-2.534736e+000	-6.603413e+001	-1.936799e+001	-9.519150e+001	-1.387954e+001	3.181540e+001
3970000000	-1.404126e-002	2.390463e+001	-4.406447e+000	-8.148310e+001	-1.944166e+001	-8.243124e+001	-1.111917e+001	6.891765e+000
3980000000	-1.666910e-002	2.316451e+001	-6.548420e+000	-9.137307e+001	-1.802801e+001	-8.870397e+001	-8.339584e+000	-5.267443e+000
3990000000	-2.902608e-001	2.300622e+001	-8.462522e+000	-9.678554e+001	-1.763251e+001	-1.030234e+002	-6.131272e+000	-1.356877e+001
4000000000	-6.599703e-001	2.177927e+001	-9.894817e+000	-9.968908e+001	-1.797136e+001	-1.192283e+002	-4.554090e+000	-1.927233e+001
