!Agilent Technologies,E5071C,MY46520292,B.13.20
!Date: Sun Dec 10 03:28:10 2023
!Data & Calibration Information:
!Freq	S11:SOLT2(ON)	S21:SOLT2(ON)	S12:SOLT2(ON)	S22:SOLT2(ON)
!PortZ  Port1:50+j0    Port2:50+j0
!Above PortZ is port z conversion or system Z0 setting when saving the data.
!When reading, reference impedance value at option line is always used.
# Hz S dB R 50
3000000000	-2.110774e-001	-7.429536e+001	-4.127122e+001	1.482160e+002	-4.101628e+001	1.465062e+002	-3.033552e-001	-7.066176e+001
3005000000	-2.107284e-001	-7.511221e+001	-4.097837e+001	1.480339e+002	-4.098826e+001	1.490473e+002	-3.029445e-001	-7.145309e+001
3010000000	-2.120728e-001	-7.598451e+001	-4.089890e+001	1.496903e+002	-4.078235e+001	1.500372e+002	-3.031001e-001	-7.225563e+001
3015000000	-2.173617e-001	-7.682378e+001	-4.041781e+001	1.506643e+002	-4.047967e+001	1.505615e+002	-3.114193e-001	-7.301833e+001
3020000000	-2.228692e-001	-7.767224e+001	-4.011892e+001	1.505156e+002	-4.013386e+001	1.507970e+002	-3.110663e-001	-7.387132e+001
3025000000	-2.293021e-001	-7.856337e+001	-3.960912e+001	1.498784e+002	-3.956406e+001	1.505382e+002	-3.177444e-001	-7.470778e+001
3030000000	-2.357326e-001	-7.944367e+001	-3.914000e+001	1.482525e+002	-3.910165e+001	1.500445e+002	-3.260141e-001	-7.556660e+001
3035000000	-2.427201e-001	-8.034163e+001	-3.872347e+001	1.457793e+002	-3.856229e+001	1.470164e+002	-3.305686e-001	-7.641300e+001
3040000000	-2.478952e-001	-8.125875e+001	-3.840948e+001	1.433088e+002	-3.821942e+001	1.449417e+002	-3.366293e-001	-7.731072e+001
3045000000	-2.547910e-001	-8.221056e+001	-3.803765e+001	1.402430e+002	-3.782622e+001	1.408937e+002	-3.401827e-001	-7.818807e+001
3050000000	-2.611579e-001	-8.314858e+001	-3.776254e+001	1.367306e+002	-3.760823e+001	1.381021e+002	-3.463661e-001	-7.909853e+001
3055000000	-2.855015e-001	-8.412570e+001	-3.770623e+001	1.335199e+002	-3.747138e+001	1.339443e+002	-3.703313e-001	-7.991269e+001
3060000000	-3.138045e-001	-8.502287e+001	-3.763556e+001	1.304053e+002	-3.753344e+001	1.297049e+002	-3.953318e-001	-8.075387e+001
3065000000	-3.390149e-001	-8.582885e+001	-3.773509e+001	1.281237e+002	-3.763012e+001	1.270898e+002	-4.240482e-001	-8.158698e+001
3070000000	-3.520907e-001	-8.659323e+001	-3.770861e+001	1.256819e+002	-3.773423e+001	1.242148e+002	-4.507509e-001	-8.246972e+001
3075000000	-3.513145e-001	-8.732138e+001	-3.779269e+001	1.241548e+002	-3.790499e+001	1.215043e+002	-4.756057e-001	-8.337282e+001
3080000000	-3.341072e-001	-8.806022e+001	-3.791061e+001	1.229504e+002	-3.814611e+001	1.206690e+002	-4.955323e-001	-8.436707e+001
3085000000	-2.998210e-001	-8.885123e+001	-3.795206e+001	1.214795e+002	-3.833350e+001	1.190159e+002	-5.090430e-001	-8.537970e+001
3090000000	-2.529411e-001	-8.971365e+001	-3.800980e+001	1.206281e+002	-3.838460e+001	1.189497e+002	-5.125431e-001	-8.645735e+001
3095000000	-1.929393e-001	-9.069992e+001	-3.796232e+001	1.199171e+002	-3.835199e+001	1.186376e+002	-5.113098e-001	-8.762007e+001
3100000000	-1.257502e-001	-9.175689e+001	-3.788954e+001	1.210013e+002	-3.844346e+001	1.189379e+002	-5.070122e-001	-8.879404e+001
3105000000	-6.439804e-002	-9.291789e+001	-3.765228e+001	1.208417e+002	-3.835796e+001	1.192875e+002	-4.875544e-001	-8.999766e+001
3110000000	1.377728e-003	-9.411725e+001	-3.757412e+001	1.208063e+002	-3.809399e+001	1.191907e+002	-4.623235e-001	-9.120889e+001
3115000000	5.311815e-002	-9.538127e+001	-3.718659e+001	1.202079e+002	-3.785097e+001	1.189028e+002	-4.289094e-001	-9.240636e+001
3120000000	9.319762e-002	-9.662855e+001	-3.694878e+001	1.197400e+002	-3.739691e+001	1.185612e+002	-3.882084e-001	-9.354075e+001
3125000000	1.245712e-001	-9.790113e+001	-3.652410e+001	1.189243e+002	-3.717320e+001	1.169169e+002	-3.357316e-001	-9.462231e+001
3130000000	1.419484e-001	-9.905321e+001	-3.616764e+001	1.175167e+002	-3.681613e+001	1.155260e+002	-2.814990e-001	-9.565633e+001
3135000000	1.443547e-001	-1.001343e+002	-3.578192e+001	1.154600e+002	-3.643252e+001	1.133127e+002	-2.296776e-001	-9.659345e+001
3140000000	1.383208e-001	-1.010745e+002	-3.556828e+001	1.133845e+002	-3.615399e+001	1.105079e+002	-1.705221e-001	-9.742595e+001
3145000000	1.218143e-001	-1.018894e+002	-3.526166e+001	1.114624e+002	-3.602088e+001	1.078378e+002	-1.248507e-001	-9.813829e+001
3150000000	9.989157e-002	-1.026210e+002	-3.505910e+001	1.093947e+002	-3.581547e+001	1.056604e+002	-7.722861e-002	-9.874501e+001
3155000000	6.435844e-002	-1.032431e+002	-3.482591e+001	1.074506e+002	-3.574867e+001	1.030887e+002	-3.126937e-002	-9.923150e+001
3160000000	2.690343e-002	-1.038205e+002	-3.465603e+001	1.054995e+002	-3.567585e+001	1.011782e+002	5.681162e-003	-9.964783e+001
3165000000	-2.551471e-002	-1.043846e+002	-3.452526e+001	1.039250e+002	-3.562609e+001	9.889628e+001	3.581349e-002	-9.992797e+001
3170000000	-8.561955e-002	-1.049324e+002	-3.438313e+001	1.018064e+002	-3.561420e+001	9.695152e+001	6.215295e-002	-1.002297e+002
3175000000	-1.588497e-001	-1.055138e+002	-3.411987e+001	1.004674e+002	-3.557368e+001	9.544595e+001	7.592996e-002	-1.004457e+002
3180000000	-2.419286e-001	-1.061278e+002	-3.398774e+001	9.845009e+001	-3.540691e+001	9.418779e+001	8.283177e-002	-1.006294e+002
3185000000	-3.360104e-001	-1.067914e+002	-3.391182e+001	9.686466e+001	-3.528120e+001	9.281861e+001	8.221036e-002	-1.008308e+002
3190000000	-4.414672e-001	-1.075250e+002	-3.377554e+001	9.533492e+001	-3.520360e+001	9.141743e+001	7.452530e-002	-1.010677e+002
3195000000	-5.527585e-001	-1.083340e+002	-3.357661e+001	9.316227e+001	-3.504130e+001	9.035434e+001	5.504149e-002	-1.013332e+002
3200000000	-6.659615e-001	-1.092909e+002	-3.349061e+001	9.212372e+001	-3.494853e+001	8.908022e+001	2.726101e-002	-1.016637e+002
3205000000	-7.814301e-001	-1.104854e+002	-3.340562e+001	9.085191e+001	-3.477786e+001	8.747311e+001	-4.502581e-003	-1.020743e+002
3210000000	-8.907548e-001	-1.118348e+002	-3.324813e+001	8.936790e+001	-3.459317e+001	8.628124e+001	-4.299598e-002	-1.025910e+002
3215000000	-9.859499e-001	-1.134511e+002	-3.321006e+001	8.895608e+001	-3.447527e+001	8.505789e+001	-8.683804e-002	-1.032030e+002
3220000000	-1.068605e+000	-1.153110e+002	-3.301722e+001	8.828298e+001	-3.433029e+001	8.386783e+001	-1.393396e-001	-1.039488e+002
3225000000	-1.133615e+000	-1.174061e+002	-3.285747e+001	8.751421e+001	-3.413472e+001	8.242756e+001	-1.993777e-001	-1.048090e+002
3230000000	-1.169980e+000	-1.197230e+002	-3.264474e+001	8.754902e+001	-3.398084e+001	8.144766e+001	-2.636006e-001	-1.057923e+002
3235000000	-1.195952e+000	-1.222721e+002	-3.232757e+001	8.706405e+001	-3.384234e+001	8.102976e+001	-3.369358e-001	-1.068797e+002
3240000000	-1.198952e+000	-1.249867e+002	-3.204660e+001	8.668209e+001	-3.359785e+001	7.998253e+001	-4.127758e-001	-1.080900e+002
3245000000	-1.179183e+000	-1.277953e+002	-3.168612e+001	8.647513e+001	-3.339109e+001	7.927352e+001	-4.989358e-001	-1.093961e+002
3250000000	-1.146900e+000	-1.306550e+002	-3.122932e+001	8.567398e+001	-3.311393e+001	7.847452e+001	-5.906418e-001	-1.107548e+002
3255000000	-1.103777e+000	-1.334485e+002	-3.085995e+001	8.464667e+001	-3.280546e+001	7.754684e+001	-6.816046e-001	-1.122041e+002
3260000000	-1.037570e+000	-1.360644e+002	-3.035420e+001	8.299441e+001	-3.238003e+001	7.648951e+001	-7.799323e-001	-1.136774e+002
3265000000	-9.614940e-001	-1.384903e+002	-2.996094e+001	8.136319e+001	-3.200800e+001	7.538664e+001	-8.845840e-001	-1.151370e+002
3270000000	-8.689103e-001	-1.406613e+002	-2.953690e+001	7.970115e+001	-3.163215e+001	7.308160e+001	-9.926142e-001	-1.166228e+002
3275000000	-7.591616e-001	-1.425072e+002	-2.913824e+001	7.691881e+001	-3.117875e+001	7.114689e+001	-1.103559e+000	-1.181128e+002
3280000000	-6.335218e-001	-1.441291e+002	-2.878217e+001	7.432372e+001	-3.080547e+001	6.818195e+001	-1.216987e+000	-1.196045e+002
3285000000	-4.947020e-001	-1.454777e+002	-2.853032e+001	7.154703e+001	-3.048944e+001	6.529334e+001	-1.331604e+000	-1.210697e+002
3290000000	-3.414585e-001	-1.466699e+002	-2.832224e+001	6.871620e+001	-3.023875e+001	6.219943e+001	-1.447823e+000	-1.225402e+002
3295000000	-1.796599e-001	-1.477141e+002	-2.819069e+001	6.593677e+001	-3.001650e+001	5.903293e+001	-1.563212e+000	-1.240255e+002
3300000000	-8.939976e-003	-1.486682e+002	-2.810100e+001	6.405849e+001	-2.995692e+001	5.631130e+001	-1.680500e+000	-1.255409e+002
3305000000	1.492036e-001	-1.495904e+002	-2.804184e+001	6.215481e+001	-2.983103e+001	5.360861e+001	-1.794235e+000	-1.271189e+002
3310000000	2.910718e-001	-1.505026e+002	-2.795251e+001	6.095122e+001	-2.977222e+001	5.108241e+001	-1.899649e+000	-1.287681e+002
3315000000	4.173469e-001	-1.514706e+002	-2.786419e+001	6.015838e+001	-2.976589e+001	4.922703e+001	-2.005565e+000	-1.304876e+002
3320000000	5.129513e-001	-1.524893e+002	-2.770439e+001	5.964885e+001	-2.976245e+001	4.735476e+001	-2.101688e+000	-1.323355e+002
3325000000	5.788441e-001	-1.535409e+002	-2.754872e+001	5.946540e+001	-2.976915e+001	4.604968e+001	-2.183810e+000	-1.343143e+002
3330000000	6.086978e-001	-1.546075e+002	-2.727313e+001	5.932090e+001	-2.973380e+001	4.523109e+001	-2.259144e+000	-1.364032e+002
3335000000	6.100818e-001	-1.556383e+002	-2.698014e+001	5.942722e+001	-2.969765e+001	4.498244e+001	-2.322135e+000	-1.386085e+002
3340000000	5.788384e-001	-1.566315e+002	-2.658633e+001	5.936918e+001	-2.958366e+001	4.505872e+001	-2.361581e+000	-1.409915e+002
3345000000	5.276920e-001	-1.575480e+002	-2.614489e+001	5.920762e+001	-2.941030e+001	4.529215e+001	-2.389608e+000	-1.434832e+002
3350000000	4.533874e-001	-1.584258e+002	-2.559987e+001	5.870878e+001	-2.908431e+001	4.589472e+001	-2.395059e+000	-1.460898e+002
3355000000	3.674082e-001	-1.592506e+002	-2.504092e+001	5.795743e+001	-2.865032e+001	4.638311e+001	-2.380246e+000	-1.488292e+002
3360000000	2.770371e-001	-1.601366e+002	-2.440776e+001	5.641629e+001	-2.811926e+001	4.648388e+001	-2.343649e+000	-1.516064e+002
3365000000	1.865508e-001	-1.611264e+002	-2.379236e+001	5.426274e+001	-2.747712e+001	4.574536e+001	-2.287336e+000	-1.543794e+002
3370000000	9.738697e-002	-1.622546e+002	-2.320088e+001	5.143404e+001	-2.682635e+001	4.422933e+001	-2.210570e+000	-1.571436e+002
3375000000	4.970770e-003	-1.635833e+002	-2.267223e+001	4.809258e+001	-2.616516e+001	4.161776e+001	-2.112973e+000	-1.598364e+002
3380000000	-9.831914e-002	-1.651510e+002	-2.225961e+001	4.410076e+001	-2.557958e+001	3.845636e+001	-2.002881e+000	-1.624460e+002
3385000000	-2.177032e-001	-1.669833e+002	-2.196341e+001	4.011078e+001	-2.508513e+001	3.452077e+001	-1.879858e+000	-1.649357e+002
3390000000	-3.643905e-001	-1.691164e+002	-2.176179e+001	3.644186e+001	-2.469985e+001	3.065517e+001	-1.743211e+000	-1.672776e+002
3395000000	-5.458820e-001	-1.715042e+002	-2.166187e+001	3.316284e+001	-2.439145e+001	2.661508e+001	-1.600163e+000	-1.695210e+002
3400000000	-7.584915e-001	-1.741120e+002	-2.162029e+001	3.038264e+001	-2.417303e+001	2.277645e+001	-1.448900e+000	-1.715719e+002
3405000000	-9.963768e-001	-1.768461e+002	-2.158751e+001	2.836412e+001	-2.405761e+001	1.904920e+001	-1.303111e+000	-1.735436e+002
3410000000	-1.257855e+000	-1.796796e+002	-2.156198e+001	2.692958e+001	-2.397390e+001	1.585414e+001	-1.157006e+000	-1.753534e+002
3415000000	-1.522120e+000	1.774148e+002	-2.147998e+001	2.611320e+001	-2.394322e+001	1.292858e+001	-1.012941e+000	-1.770552e+002
3420000000	-1.771993e+000	1.744553e+002	-2.134780e+001	2.590372e+001	-2.391695e+001	1.056984e+001	-8.689934e-001	-1.786943e+002
3425000000	-1.996313e+000	1.714042e+002	-2.110913e+001	2.592705e+001	-2.392184e+001	8.775105e+000	-7.309282e-001	1.797413e+002
3430000000	-2.172207e+000	1.681951e+002	-2.078121e+001	2.609460e+001	-2.390220e+001	7.468239e+000	-5.983440e-001	1.782160e+002
3435000000	-2.283525e+000	1.648118e+002	-2.037146e+001	2.625850e+001	-2.385376e+001	6.750068e+000	-4.686750e-001	1.767061e+002
3440000000	-2.311970e+000	1.612151e+002	-1.981453e+001	2.623590e+001	-2.372950e+001	6.563234e+000	-3.502600e-001	1.751534e+002
3445000000	-2.260412e+000	1.573604e+002	-1.919192e+001	2.567660e+001	-2.352173e+001	6.894435e+000	-2.393237e-001	1.735901e+002
3450000000	-2.127748e+000	1.532809e+002	-1.849920e+001	2.448976e+001	-2.316814e+001	7.547092e+000	-1.456163e-001	1.719721e+002
3455000000	-1.923538e+000	1.490514e+002	-1.778889e+001	2.264635e+001	-2.263978e+001	8.239607e+000	-7.989785e-002	1.703223e+002
3460000000	-1.670638e+000	1.446562e+002	-1.705508e+001	1.989900e+001	-2.191484e+001	8.385021e+000	-2.363304e-002	1.685915e+002
3465000000	-1.390310e+000	1.401588e+002	-1.637513e+001	1.647792e+001	-2.104955e+001	7.368769e+000	6.926926e-003	1.668196e+002
3470000000	-1.097689e+000	1.357680e+002	-1.575913e+001	1.243226e+001	-2.013096e+001	4.904634e+000	2.433938e-002	1.650014e+002
3475000000	-8.238076e-001	1.315786e+002	-1.524183e+001	7.979123e+000	-1.924858e+001	9.702117e-001	2.152626e-002	1.631333e+002
3480000000	-5.783629e-001	1.277219e+002	-1.483372e+001	3.237074e+000	-1.847158e+001	-4.140979e+000	-1.789062e-003	1.612294e+002
3485000000	-3.660210e-001	1.243707e+002	-1.453415e+001	-1.377556e+000	-1.783219e+001	-1.014970e+001	-4.402964e-002	1.592873e+002
3490000000	-1.848038e-001	1.215481e+002	-1.432975e+001	-5.761712e+000	-1.736462e+001	-1.650485e+001	-1.125284e-001	1.573083e+002
3495000000	-2.360087e-002	1.193054e+002	-1.419570e+001	-9.645600e+000	-1.704665e+001	-2.307105e+001	-2.067786e-001	1.552751e+002
3500000000	1.245969e-001	1.175654e+002	-1.409805e+001	-1.310585e+001	-1.688661e+001	-2.954040e+001	-3.256268e-001	1.532454e+002
3505000000	2.692463e-001	1.162950e+002	-1.402060e+001	-1.596111e+001	-1.687149e+001	-3.574152e+001	-4.738330e-001	1.512294e+002
3510000000	4.142052e-001	1.153342e+002	-1.393013e+001	-1.834526e+001	-1.697873e+001	-4.159915e+001	-6.459932e-001	1.492369e+002
3515000000	5.625900e-001	1.145888e+002	-1.381190e+001	-2.027170e+001	-1.720883e+001	-4.673802e+001	-8.437475e-001	1.472825e+002
3520000000	7.036578e-001	1.139030e+002	-1.364292e+001	-2.192161e+001	-1.755947e+001	-5.114766e+001	-1.062634e+000	1.453577e+002
3525000000	8.324914e-001	1.131092e+002	-1.340898e+001	-2.333449e+001	-1.801659e+001	-5.442884e+001	-1.305432e+000	1.434412e+002
3530000000	9.258859e-001	1.121319e+002	-1.311631e+001	-2.470891e+001	-1.854138e+001	-5.620982e+001	-1.563494e+000	1.414903e+002
3535000000	9.713368e-001	1.109185e+002	-1.276871e+001	-2.611526e+001	-1.905467e+001	-5.606013e+001	-1.844865e+000	1.394913e+002
3540000000	9.438695e-001	1.094327e+002	-1.237430e+001	-2.768835e+001	-1.940677e+001	-5.365664e+001	-2.142376e+000	1.373783e+002
3545000000	8.316605e-001	1.077335e+002	-1.194086e+001	-2.942655e+001	-1.942235e+001	-4.947936e+001	-2.457922e+000	1.351000e+002
3550000000	6.172418e-001	1.058878e+002	-1.146873e+001	-3.130479e+001	-1.894401e+001	-4.491387e+001	-2.787771e+000	1.326391e+002
3555000000	3.071239e-001	1.039674e+002	-1.096823e+001	-3.343107e+001	-1.802081e+001	-4.176330e+001	-3.134563e+000	1.299715e+002
3560000000	-9.236555e-002	1.020653e+002	-1.043937e+001	-3.580325e+001	-1.682664e+001	-4.096197e+001	-3.489641e+000	1.270000e+002
3565000000	-5.630548e-001	1.001966e+002	-9.873528e+000	-3.849938e+001	-1.556654e+001	-4.268292e+001	-3.843998e+000	1.236137e+002
3570000000	-1.087593e+000	9.828543e+001	-9.293448e+000	-4.160672e+001	-1.435067e+001	-4.651214e+001	-4.190019e+000	1.197675e+002
3575000000	-1.632317e+000	9.620155e+001	-8.698931e+000	-4.523457e+001	-1.325380e+001	-5.206449e+001	-4.506650e+000	1.153490e+002
3580000000	-2.176693e+000	9.373723e+001	-8.118692e+000	-4.941263e+001	-1.231830e+001	-5.894007e+001	-4.763292e+000	1.102897e+002
3585000000	-2.690396e+000	9.068006e+001	-7.585823e+000	-5.420247e+001	-1.157839e+001	-6.688369e+001	-4.945867e+000	1.043771e+002
3590000000	-3.162415e+000	8.668428e+001	-7.135847e+000	-5.946337e+001	-1.105672e+001	-7.553958e+001	-5.040996e+000	9.752015e+001
3595000000	-3.567867e+000	8.153871e+001	-6.785843e+000	-6.501874e+001	-1.078904e+001	-8.446805e+001	-5.061190e+000	8.972374e+001
3600000000	-3.898026e+000	7.506607e+001	-6.554466e+000	-7.059784e+001	-1.077758e+001	-9.336209e+001	-5.023548e+000	8.116326e+001
3605000000	-4.133748e+000	6.733692e+001	-6.437493e+000	-7.593744e+001	-1.103535e+001	-1.015611e+002	-4.944228e+000	7.225346e+001
3610000000	-4.259351e+000	5.868475e+001	-6.409908e+000	-8.079944e+001	-1.152965e+001	-1.085283e+002	-4.836142e+000	6.346615e+001
3615000000	-4.258816e+000	4.952720e+001	-6.436544e+000	-8.502571e+001	-1.220073e+001	-1.136181e+002	-4.705650e+000	5.510988e+001
3620000000	-4.149295e+000	4.048918e+001	-6.489376e+000	-8.850612e+001	-1.293847e+001	-1.162865e+002	-4.568925e+000	4.748010e+001
3625000000	-3.965270e+000	3.211371e+001	-6.532706e+000	-9.126929e+001	-1.355318e+001	-1.162794e+002	-4.423562e+000	4.062873e+001
3630000000	-3.727250e+000	2.474937e+001	-6.515462e+000	-9.329393e+001	-1.385895e+001	-1.141261e+002	-4.286908e+000	3.462148e+001
3635000000	-3.472005e+000	1.864353e+001	-6.406674e+000	-9.479598e+001	-1.371389e+001	-1.112318e+002	-4.175819e+000	2.938628e+001
3640000000	-3.210712e+000	1.367177e+001	-6.171772e+000	-9.605211e+001	-1.315736e+001	-1.090978e+002	-4.095877e+000	2.487376e+001
3645000000	-2.965577e+000	9.838086e+000	-5.811291e+000	-9.735383e+001	-1.232137e+001	-1.087029e+002	-4.065230e+000	2.110456e+001
3650000000	-2.742034e+000	7.004279e+000	-5.321884e+000	-9.901745e+001	-1.135414e+001	-1.102675e+002	-4.090789e+000	1.806311e+001
3655000000	-2.538593e+000	4.976739e+000	-4.741107e+000	-1.013307e+002	-1.037024e+001	-1.136262e+002	-4.160237e+000	1.594414e+001
3660000000	-2.365869e+000	3.712631e+000	-4.108630e+000	-1.044556e+002	-9.441101e+000	-1.185506e+002	-4.235499e+000	1.485235e+001
3665000000	-2.208118e+000	3.095287e+000	-3.466227e+000	-1.084532e+002	-8.613333e+000	-1.247730e+002	-4.243880e+000	1.473394e+001
3670000000	-2.039808e+000	2.984633e+000	-2.855030e+000	-1.132778e+002	-7.910574e+000	-1.319701e+002	-4.096906e+000	1.514856e+001
3675000000	-1.836080e+000	3.116955e+000	-2.305334e+000	-1.187903e+002	-7.356264e+000	-1.399821e+002	-3.757716e+000	1.516723e+001
3680000000	-1.606988e+000	3.077062e+000	-1.838016e+000	-1.248535e+002	-6.966939e+000	-1.485583e+002	-3.296724e+000	1.391628e+001
3685000000	-1.383031e+000	2.467902e+000	-1.470736e+000	-1.313836e+002	-6.769432e+000	-1.575310e+002	-2.854654e+000	1.099276e+001
3690000000	-1.247667e+000	1.155988e+000	-1.239002e+000	-1.381544e+002	-6.788502e+000	-1.666127e+002	-2.560221e+000	6.474227e+000
3695000000	-1.261867e+000	-6.503004e-001	-1.144850e+000	-1.448654e+002	-7.037220e+000	-1.752504e+002	-2.508399e+000	9.583449e-001
3700000000	-1.466788e+000	-2.613161e+000	-1.179157e+000	-1.511192e+002	-7.495796e+000	1.770679e+002	-2.736025e+000	-5.000549e+000
3705000000	-1.859554e+000	-4.324477e+000	-1.298099e+000	-1.566169e+002	-8.101744e+000	1.708947e+002	-3.241789e+000	-1.082662e+001
3710000000	-2.423880e+000	-5.490484e+000	-1.444768e+000	-1.612610e+002	-8.752082e+000	1.665734e+002	-4.010631e+000	-1.616811e+001
3715000000	-3.123683e+000	-5.951498e+000	-1.558125e+000	-1.651240e+002	-9.317059e+000	1.640023e+002	-5.049465e+000	-2.077837e+001
3720000000	-3.950236e+000	-5.721006e+000	-1.591193e+000	-1.684292e+002	-9.697425e+000	1.627889e+002	-6.401811e+000	-2.423393e+001
3725000000	-4.906501e+000	-4.676429e+000	-1.527149e+000	-1.715606e+002	-9.817505e+000	1.620657e+002	-8.111134e+000	-2.572791e+001
3730000000	-6.004600e+000	-2.582995e+000	-1.376496e+000	-1.748946e+002	-9.697698e+000	1.609954e+002	-1.019902e+001	-2.343153e+001
3735000000	-7.239916e+000	1.023480e+000	-1.173020e+000	-1.786698e+002	-9.429216e+000	1.589014e+002	-1.239040e+001	-1.428619e+001
3740000000	-8.563308e+000	6.948911e+000	-9.687524e-001	1.770779e+002	-9.116856e+000	1.556465e+002	-1.370322e+001	2.724456e+000
3745000000	-9.790675e+000	1.571981e+001	-8.015280e-001	1.724552e+002	-8.863160e+000	1.515128e+002	-1.332312e+001	1.939811e+001
3750000000	-1.066293e+001	2.699243e+001	-6.823939e-001	1.676964e+002	-8.694397e+000	1.469886e+002	-1.223899e+001	2.818587e+001
3755000000	-1.099687e+001	3.910286e+001	-6.010639e-001	1.630534e+002	-8.594033e+000	1.424894e+002	-1.143795e+001	3.089987e+001
