!Agilent Technologies,E5071C,MY46520292,B.13.20
!Date: Sun Dec 10 02:58:02 2023
!Data & Calibration Information:
!Freq	S11:SOLT2(ON)	S21:SOLT2(ON)	S12:SOLT2(ON)	S22:SOLT2(ON)
!PortZ  Port1:50+j0    Port2:50+j0
!Above PortZ is port z conversion or system Z0 setting when saving the data.
!When reading, reference impedance value at option line is always used.
# Hz S dB R 50
2000000000	-5.041328e+000	6.110208e+001	-4.292241e+001	4.063548e+001	-3.503202e+001	7.527153e+001	3.129411e+000	8.888443e+001
2015000000	-5.403807e+000	5.462716e+001	-4.273483e+001	4.715584e+001	-3.599653e+001	7.602209e+001	2.013392e+000	9.199085e+001
2030000000	-5.934991e+000	4.925411e+001	-4.122267e+001	4.438619e+001	-3.612974e+001	7.240692e+001	9.434291e-001	9.247098e+001
2045000000	-6.451713e+000	4.543547e+001	-4.059683e+001	3.274365e+001	-3.607342e+001	6.146771e+001	-7.763052e-002	9.091909e+001
2060000000	-6.818568e+000	4.302312e+001	-4.102567e+001	2.093105e+001	-3.654132e+001	4.993306e+001	-1.046484e+000	8.785205e+001
2075000000	-6.946271e+000	4.217316e+001	-4.233863e+001	1.483483e+001	-3.740416e+001	4.191632e+001	-1.972530e+000	8.380945e+001
2090000000	-6.828766e+000	4.303047e+001	-4.386139e+001	1.584372e+001	-3.820538e+001	3.718201e+001	-2.858286e+000	7.919000e+001
2105000000	-6.547071e+000	4.517753e+001	-4.434227e+001	2.453635e+001	-3.862180e+001	3.529944e+001	-3.656467e+000	7.391232e+001
2120000000	-6.149289e+000	4.808366e+001	-4.322296e+001	3.149588e+001	-3.826919e+001	3.420641e+001	-4.326768e+000	6.778756e+001
2135000000	-5.624294e+000	5.108242e+001	-4.158278e+001	2.884939e+001	-3.727204e+001	2.916560e+001	-4.801913e+000	6.059468e+001
2150000000	-4.957932e+000	5.327906e+001	-4.072560e+001	2.067200e+001	-3.703737e+001	2.113426e+001	-4.984603e+000	5.244421e+001
2165000000	-4.209175e+000	5.376417e+001	-4.073052e+001	1.418088e+001	-3.716680e+001	1.262026e+001	-4.846218e+000	4.361296e+001
2180000000	-3.400962e+000	5.153513e+001	-4.066827e+001	1.097456e+001	-3.786133e+001	6.935693e+000	-4.386451e+000	3.545740e+001
2195000000	-2.708732e+000	4.633054e+001	-4.003656e+001	1.036239e+001	-3.840530e+001	5.382792e+000	-3.765584e+000	2.871545e+001
2210000000	-2.358183e+000	3.919724e+001	-3.883733e+001	5.330062e+000	-3.804863e+001	5.243264e+000	-3.158373e+000	2.353203e+001
2225000000	-2.456962e+000	3.178636e+001	-3.776897e+001	-7.710395e+000	-3.726208e+001	-2.919570e+000	-2.594728e+000	1.984043e+001
2240000000	-2.924284e+000	2.588061e+001	-3.784644e+001	-2.390409e+001	-3.711938e+001	-1.687556e+001	-2.103122e+000	1.734245e+001
2255000000	-3.566216e+000	2.207644e+001	-3.913410e+001	-3.655104e+001	-3.785124e+001	-2.912222e+001	-1.641085e+000	1.567540e+001
2270000000	-4.223968e+000	1.990713e+001	-4.119579e+001	-4.360490e+001	-3.894964e+001	-3.545178e+001	-1.196084e+000	1.455030e+001
2285000000	-4.799892e+000	1.864968e+001	-4.311188e+001	-4.065185e+001	-3.941583e+001	-3.568176e+001	-7.485226e-001	1.356869e+001
2300000000	-5.215048e+000	1.780057e+001	-4.367534e+001	-2.999161e+001	-3.897486e+001	-3.382937e+001	-3.369349e-001	1.251806e+001
2315000000	-5.391994e+000	1.720203e+001	-4.265003e+001	-2.297663e+001	-3.774573e+001	-3.555718e+001	2.376741e-002	1.172233e+001
2330000000	-5.321494e+000	1.691426e+001	-4.131685e+001	-2.602799e+001	-3.659737e+001	-4.275001e+001	2.772227e-001	1.110976e+001
2345000000	-5.009877e+000	1.700387e+001	-4.056250e+001	-3.578034e+001	-3.616898e+001	-5.288207e+001	4.083131e-001	1.090033e+001
2360000000	-4.488380e+000	1.740540e+001	-4.079954e+001	-4.559426e+001	-3.646241e+001	-6.023637e+001	4.166128e-001	1.118866e+001
2375000000	-3.814966e+000	1.772339e+001	-4.197615e+001	-5.161765e+001	-3.747686e+001	-6.351876e+001	3.046488e-001	1.168709e+001
2390000000	-3.057631e+000	1.734857e+001	-4.309910e+001	-5.010828e+001	-3.839850e+001	-6.096629e+001	7.573772e-002	1.182054e+001
2405000000	-2.287298e+000	1.568424e+001	-4.346437e+001	-4.373117e+001	-3.861555e+001	-5.508592e+001	-2.250492e-001	1.105423e+001
2420000000	-1.598004e+000	1.226213e+001	-4.225613e+001	-3.928540e+001	-3.811183e+001	-5.216699e+001	-5.022411e-001	8.839285e+000
2435000000	-1.128873e+000	7.148934e+000	-4.104554e+001	-4.227636e+001	-3.806029e+001	-5.247035e+001	-6.778127e-001	5.268916e+000
2450000000	-9.822457e-001	1.153109e+000	-4.011034e+001	-5.422108e+001	-3.785800e+001	-5.471537e+001	-6.843113e-001	7.776862e-001
2465000000	-1.167075e+000	-4.407778e+000	-4.032054e+001	-6.587444e+001	-3.809742e+001	-5.786537e+001	-5.005287e-001	-3.751178e+000
2480000000	-1.597833e+000	-8.500023e+000	-4.182228e+001	-7.391389e+001	-3.831474e+001	-5.675209e+001	-2.029287e-001	-7.435418e+000
2495000000	-2.140363e+000	-1.075135e+001	-4.327691e+001	-7.241645e+001	-3.822415e+001	-5.687631e+001	1.193411e-001	-9.733959e+000
2510000000	-2.668052e+000	-1.139538e+001	-4.373745e+001	-6.733150e+001	-3.816135e+001	-5.784239e+001	3.963268e-001	-1.069677e+001
2525000000	-3.103424e+000	-1.098422e+001	-4.305867e+001	-6.339607e+001	-3.848105e+001	-5.838640e+001	5.874467e-001	-1.066539e+001
2540000000	-3.399170e+000	-1.014454e+001	-4.266036e+001	-6.630888e+001	-3.871706e+001	-5.916359e+001	6.746336e-001	-1.025887e+001
2555000000	-3.511516e+000	-9.448176e+000	-4.240914e+001	-6.967110e+001	-3.907838e+001	-5.973299e+001	6.814622e-001	-1.010979e+001
2570000000	-3.430331e+000	-9.336054e+000	-4.248580e+001	-7.353849e+001	-3.939029e+001	-5.975344e+001	6.129654e-001	-1.058043e+001
2585000000	-3.148149e+000	-1.012034e+001	-4.316332e+001	-7.370013e+001	-3.940979e+001	-6.126202e+001	4.738947e-001	-1.176413e+001
2600000000	-2.704370e+000	-1.191360e+001	-4.314918e+001	-7.068742e+001	-3.940707e+001	-6.421000e+001	2.562087e-001	-1.350069e+001
2615000000	-2.159541e+000	-1.469708e+001	-4.231130e+001	-6.714577e+001	-3.955772e+001	-6.880255e+001	-2.990736e-002	-1.547000e+001
2630000000	-1.615683e+000	-1.828910e+001	-4.106219e+001	-6.971271e+001	-3.982081e+001	-7.211711e+001	-3.582865e-001	-1.737429e+001
2645000000	-1.142900e+000	-2.237346e+001	-4.010928e+001	-7.582904e+001	-3.990411e+001	-7.345215e+001	-6.891680e-001	-1.914473e+001
2660000000	-8.071581e-001	-2.663976e+001	-3.959489e+001	-8.323814e+001	-3.992624e+001	-7.749557e+001	-9.863065e-001	-2.096273e+001
2675000000	-6.184139e-001	-3.087699e+001	-3.961249e+001	-8.908460e+001	-3.955830e+001	-7.864904e+001	-1.222033e+000	-2.327817e+001
2690000000	-5.802924e-001	-3.495002e+001	-3.936946e+001	-9.301909e+001	-3.883659e+001	-8.240596e+001	-1.393475e+000	-2.652641e+001
2705000000	-6.749290e-001	-3.866149e+001	-3.886236e+001	-9.714657e+001	-3.793913e+001	-9.012351e+001	-1.499191e+000	-3.085797e+001
2720000000	-8.680771e-001	-4.171751e+001	-3.830575e+001	-1.066382e+002	-3.764244e+001	-1.013746e+002	-1.552689e+000	-3.610431e+001
2735000000	-1.105234e+000	-4.386713e+001	-3.872013e+001	-1.170422e+002	-3.816348e+001	-1.120909e+002	-1.558563e+000	-4.152467e+001
2750000000	-1.323778e+000	-4.494307e+001	-3.952398e+001	-1.231132e+002	-3.871960e+001	-1.167949e+002	-1.514152e+000	-4.630380e+001
2765000000	-1.473680e+000	-4.503237e+001	-4.012306e+001	-1.260415e+002	-3.914666e+001	-1.209831e+002	-1.420064e+000	-4.990806e+001
2780000000	-1.519140e+000	-4.461635e+001	-4.066960e+001	-1.261454e+002	-3.904078e+001	-1.244254e+002	-1.277765e+000	-5.239531e+001
2795000000	-1.463416e+000	-4.423680e+001	-4.036072e+001	-1.256006e+002	-3.890660e+001	-1.289513e+002	-1.103957e+000	-5.426361e+001
2810000000	-1.318461e+000	-4.458093e+001	-3.966964e+001	-1.270403e+002	-3.865668e+001	-1.336695e+002	-9.135447e-001	-5.613151e+001
2825000000	-1.128392e+000	-4.616201e+001	-3.875421e+001	-1.332594e+002	-3.837368e+001	-1.391317e+002	-7.701365e-001	-5.862548e+001
2840000000	-9.327495e-001	-4.933067e+001	-3.809821e+001	-1.417106e+002	-3.785885e+001	-1.462959e+002	-6.853164e-001	-6.199524e+001
2855000000	-7.763793e-001	-5.380046e+001	-3.800336e+001	-1.524043e+002	-3.773704e+001	-1.555486e+002	-6.574634e-001	-6.592292e+001
2870000000	-6.725192e-001	-5.882146e+001	-3.843564e+001	-1.626097e+002	-3.800480e+001	-1.650361e+002	-6.540288e-001	-6.988375e+001
2885000000	-6.108116e-001	-6.354139e+001	-3.884291e+001	-1.676790e+002	-3.858072e+001	-1.710657e+002	-6.479262e-001	-7.324523e+001
2900000000	-5.697106e-001	-6.740858e+001	-3.910353e+001	-1.714731e+002	-3.892288e+001	-1.753164e+002	-6.198106e-001	-7.585422e+001
2915000000	-5.170271e-001	-7.046505e+001	-3.844320e+001	-1.765003e+002	-3.869145e+001	-1.774674e+002	-5.523173e-001	-7.793587e+001
2930000000	-4.675611e-001	-7.290755e+001	-3.765304e+001	1.752853e+002	-3.782574e+001	1.760184e+002	-4.773881e-001	-8.008472e+001
2945000000	-4.046911e-001	-7.530660e+001	-3.720115e+001	1.614036e+002	-3.714484e+001	1.634168e+002	-3.963977e-001	-8.283011e+001
2960000000	-3.778665e-001	-7.797612e+001	-3.779807e+001	1.468045e+002	-3.734738e+001	1.480089e+002	-3.555629e-001	-8.603127e+001
2975000000	-3.667714e-001	-8.079349e+001	-3.876171e+001	1.360026e+002	-3.845566e+001	1.347426e+002	-3.471974e-001	-8.912736e+001
2990000000	-3.640876e-001	-8.358492e+001	-3.992328e+001	1.312046e+002	-3.971780e+001	1.289607e+002	-3.478193e-001	-9.227502e+001
3005000000	-3.676544e-001	-8.639614e+001	-4.076088e+001	1.277676e+002	-4.092109e+001	1.260975e+002	-3.787656e-001	-9.539370e+001
3020000000	-3.659370e-001	-8.924167e+001	-4.224234e+001	1.337789e+002	-4.252782e+001	1.320914e+002	-4.107611e-001	-9.828436e+001
3035000000	-3.528628e-001	-9.234468e+001	-3.904234e+001	1.452918e+002	-3.913806e+001	1.467628e+002	-3.732483e-001	-1.014642e+002
3050000000	-3.540550e-001	-9.568965e+001	-3.668067e+001	1.282500e+002	-3.652402e+001	1.307352e+002	-3.519489e-001	-1.051801e+002
3065000000	-4.232237e-001	-9.874117e+001	-3.631299e+001	1.142167e+002	-3.613136e+001	1.138014e+002	-4.175864e-001	-1.086256e+002
3080000000	-4.002133e-001	-1.015110e+002	-3.619409e+001	1.067152e+002	-3.629161e+001	1.046405e+002	-4.644979e-001	-1.124580e+002
3095000000	-2.509962e-001	-1.048941e+002	-3.576504e+001	1.027458e+002	-3.619337e+001	1.003644e+002	-4.356008e-001	-1.167422e+002
3110000000	-9.568848e-002	-1.091218e+002	-3.467066e+001	9.948141e+001	-3.534154e+001	9.634081e+001	-3.447796e-001	-1.211307e+002
3125000000	-5.576490e-002	-1.134477e+002	-3.324471e+001	9.211391e+001	-3.397750e+001	8.938553e+001	-2.061969e-001	-1.250607e+002
3140000000	-1.451694e-001	-1.168420e+002	-3.218735e+001	8.162665e+001	-3.309756e+001	7.911510e+001	-8.228686e-002	-1.281818e+002
3155000000	-2.880099e-001	-1.189337e+002	-3.181381e+001	7.240498e+001	-3.279272e+001	6.891351e+001	-2.215064e-002	-1.304523e+002
3170000000	-4.106049e-001	-1.210419e+002	-3.155175e+001	6.896337e+001	-3.279083e+001	6.519965e+001	-4.935864e-002	-1.323764e+002
3185000000	-6.318221e-001	-1.243413e+002	-3.065954e+001	6.690214e+001	-3.185274e+001	6.379915e+001	-1.673864e-001	-1.346874e+002
3200000000	-9.385586e-001	-1.289750e+002	-2.944308e+001	6.342865e+001	-3.059271e+001	5.981784e+001	-3.932137e-001	-1.380372e+002
3215000000	-1.185269e+000	-1.357881e+002	-2.819069e+001	6.006639e+001	-2.933369e+001	5.442169e+001	-6.706512e-001	-1.428979e+002
3230000000	-1.221856e+000	-1.447435e+002	-2.663379e+001	5.692680e+001	-2.816423e+001	4.860527e+001	-9.988990e-001	-1.493257e+002
3245000000	-1.050467e+000	-1.547507e+002	-2.482711e+001	5.150903e+001	-2.689178e+001	4.350603e+001	-1.346675e+000	-1.568528e+002
3260000000	-7.592304e-001	-1.636630e+002	-2.306351e+001	4.276245e+001	-2.529353e+001	3.758730e+001	-1.684440e+000	-1.648324e+002
3275000000	-3.920943e-001	-1.700504e+002	-2.179292e+001	3.219865e+001	-2.368683e+001	2.816071e+001	-1.979457e+000	-1.728710e+002
3290000000	3.936836e-002	-1.745869e+002	-2.103463e+001	2.361861e+001	-2.253480e+001	1.699772e+001	-2.189532e+000	1.789262e+002
3305000000	4.138832e-001	-1.789181e+002	-2.024226e+001	1.888817e+001	-2.182937e+001	7.183563e+000	-2.286980e+000	1.700832e+002
3320000000	5.020275e-001	1.759053e+002	-1.890693e+001	1.577202e+001	-2.127367e+001	4.407694e-001	-2.200520e+000	1.602467e+002
3335000000	2.274032e-001	1.700695e+002	-1.696683e+001	1.130807e+001	-2.037083e+001	-2.814654e+000	-1.945189e+000	1.497927e+002
3350000000	-2.945197e-001	1.638612e+002	-1.475234e+001	2.032386e+000	-1.854643e+001	-5.987242e+000	-1.591872e+000	1.396291e+002
3365000000	-8.919340e-001	1.560716e+002	-1.305698e+001	-1.226765e+001	-1.621892e+001	-1.598144e+001	-1.198207e+000	1.307361e+002
3380000000	-1.523576e+000	1.448887e+002	-1.225291e+001	-2.574705e+001	-1.456348e+001	-3.162225e+001	-7.928236e-001	1.230409e+002
3395000000	-2.288775e+000	1.297710e+002	-1.164761e+001	-3.432134e+001	-1.376298e+001	-4.698409e+001	-4.959274e-001	1.156220e+002
3410000000	-2.916334e+000	1.124047e+002	-1.050062e+001	-3.964749e+001	-1.336927e+001	-5.847879e+001	-4.717610e-001	1.077844e+002
3425000000	-2.954352e+000	9.434891e+001	-8.522766e+000	-4.650981e+001	-1.271868e+001	-6.508275e+001	-8.779176e-001	9.910961e+001
3440000000	-2.383074e+000	7.674422e+001	-6.230231e+000	-6.002938e+001	-1.091394e+001	-7.086039e+001	-1.873820e+000	9.112642e+001
3455000000	-1.740294e+000	6.113575e+001	-4.637765e+000	-7.930135e+001	-8.448977e+000	-8.601311e+001	-2.906588e+000	8.601740e+001
3470000000	-1.596236e+000	4.812905e+001	-4.061655e+000	-9.800251e+001	-7.000885e+000	-1.088635e+002	-3.567734e+000	7.685880e+001
3485000000	-2.222047e+000	3.837661e+001	-3.814734e+000	-1.118961e+002	-6.849433e+000	-1.309794e+002	-4.986890e+000	6.093772e+001
3500000000	-3.778784e+000	2.986488e+001	-3.108060e+000	-1.232312e+002	-7.369732e+000	-1.469365e+002	-7.907751e+000	4.007467e+001
3515000000	-7.358170e+000	1.943868e+001	-2.018006e+000	-1.372141e+002	-7.238560e+000	-1.558364e+002	-1.386860e+001	1.761335e+001
3530000000	-1.700640e+001	9.965400e+000	-1.241039e+000	-1.539311e+002	-5.990185e+000	-1.699551e+002	-2.322980e+001	4.387808e+001
3545000000	-1.978522e+001	1.788239e+002	-6.980348e-001	-1.704710e+002	-5.557755e+000	1.691532e+002	-1.715524e+001	4.711119e+001
3560000000	-1.211828e+001	1.795134e+002	-3.151386e-001	1.717305e+002	-6.077288e+000	1.514787e+002	-1.360502e+001	-2.960027e+000
3575000000	-9.647413e+000	-1.751522e+002	-3.819051e-001	1.542452e+002	-6.493014e+000	1.389053e+002	-1.305520e+001	-4.444005e+001
3590000000	-8.275447e+000	-1.772657e+002	-6.291882e-001	1.385405e+002	-6.176811e+000	1.276148e+002	-1.782501e+001	-5.740993e+001
3605000000	-9.427669e+000	1.654195e+002	-9.580845e-001	1.239834e+002	-5.473015e+000	1.092251e+002	-1.535808e+001	1.634453e+001
3620000000	-1.400503e+001	1.208980e+002	-1.318264e+000	1.110872e+002	-6.219075e+000	8.672558e+001	-7.889897e+000	9.383284e+000
3635000000	-1.286796e+001	4.141436e+001	-1.506593e+000	9.979503e+001	-7.938995e+000	7.509153e+001	-5.569284e+000	-6.318705e+000
3650000000	-8.934701e+000	1.221623e+001	-1.320465e+000	8.861728e+001	-7.987619e+000	7.088259e+001	-5.855796e+000	-1.564201e+001
3665000000	-7.321912e+000	9.753739e+000	-8.923021e-001	7.523948e+001	-6.944474e+000	5.897542e+001	-7.418751e+000	-9.484113e+000
3680000000	-5.446618e+000	1.721010e+001	-4.862333e-001	5.955996e+001	-6.032566e+000	3.992764e+001	-6.166365e+000	6.289755e+000
3695000000	-3.725290e+000	1.559020e+001	-2.959425e-001	4.079325e+001	-5.977369e+000	1.442674e+001	-4.325396e+000	-2.169618e+000
3710000000	-4.489279e+000	1.097691e+001	-7.415161e-001	2.237228e+001	-7.451210e+000	-8.201748e+000	-6.246656e+000	-1.958588e+001
3725000000	-7.413250e+000	2.206147e+001	-9.500501e-001	6.312269e+000	-8.590970e+000	-2.263629e+001	-1.425107e+001	-9.398378e+000
3740000000	-7.390235e+000	5.882465e+001	-1.088648e+000	-1.511952e+001	-9.313253e+000	-4.256444e+001	-9.213157e+000	6.169309e+001
3755000000	-3.947140e+000	7.099674e+001	-2.342763e+000	-3.756971e+001	-1.150848e+001	-5.919291e+001	-4.985206e+000	5.444032e+001
3770000000	-2.032295e+000	6.615644e+001	-4.033303e+000	-5.561836e+001	-1.210645e+001	-6.500746e+001	-3.492753e+000	5.152397e+001
3785000000	-1.938386e+000	5.374274e+001	-5.750282e+000	-7.069309e+001	-1.158207e+001	-8.695244e+001	-2.242062e+000	4.765605e+001
3800000000	-3.330224e+000	3.941277e+001	-7.309307e+000	-8.391263e+001	-1.314495e+001	-1.164701e+002	-1.821204e+000	3.991365e+001
3815000000	-4.801788e+000	2.209082e+001	-8.699125e+000	-9.773361e+001	-1.651867e+001	-1.417574e+002	-2.351809e+000	3.087230e+001
3830000000	-4.692557e+000	-1.134094e+000	-1.036853e+001	-1.130854e+002	-2.148590e+001	-1.544771e+002	-3.567274e+000	2.157966e+001
3845000000	-2.752863e+000	-2.445939e+001	-1.264091e+001	-1.275167e+002	-2.496319e+001	-1.401794e+002	-4.941838e+000	1.136595e+001
3860000000	-8.947076e-001	-4.143127e+001	-1.556322e+001	-1.371721e+002	-2.387071e+001	-1.376397e+002	-5.949575e+000	-1.897356e+000
3875000000	3.330840e-002	-4.790762e+001	-1.829369e+001	-1.373501e+002	-2.368946e+001	-1.526079e+002	-6.246176e+000	-1.756980e+001
3890000000	7.309659e-001	-4.551083e+001	-1.958398e+001	-1.322313e+002	-2.446303e+001	-1.708135e+002	-5.781889e+000	-3.260675e+001
3905000000	1.692621e+000	-4.024880e+001	-1.933179e+001	-1.325685e+002	-2.609500e+001	1.661432e+002	-4.855922e+000	-4.505529e+001
3920000000	2.699850e+000	-3.822371e+001	-1.903423e+001	-1.441765e+002	-3.024190e+001	1.386898e+002	-3.838156e+000	-5.511089e+001
3935000000	2.820543e+000	-4.123443e+001	-2.022154e+001	-1.610448e+002	-4.009671e+001	1.398935e+002	-2.966807e+000	-6.296119e+001
3950000000	1.613911e+000	-4.334797e+001	-2.280220e+001	-1.717057e+002	-3.839139e+001	-1.623417e+002	-2.280882e+000	-6.841753e+001
3965000000	-6.688005e-002	-4.161916e+001	-2.539338e+001	-1.720932e+002	-3.548772e+001	-1.693591e+002	-1.739982e+000	-7.133933e+001
3980000000	-1.508128e+000	-4.051808e+001	-2.681016e+001	-1.668735e+002	-3.475932e+001	1.772742e+002	-1.304309e+000	-7.171655e+001
3995000000	-2.685249e+000	-4.671776e+001	-2.713483e+001	-1.628970e+002	-3.514051e+001	1.595359e+002	-9.243031e-001	-7.003154e+001
4010000000	-3.835742e+000	-6.364044e+001	-2.697423e+001	-1.648085e+002	-3.739639e+001	1.410063e+002	-5.662600e-001	-6.702509e+001
4025000000	-4.537822e+000	-8.438866e+001	-2.714631e+001	-1.699887e+002	-4.178197e+001	1.375855e+002	-2.364260e-001	-6.363222e+001
4040000000	-3.976617e+000	-9.787917e+001	-2.760426e+001	-1.737130e+002	-4.359975e+001	1.606285e+002	3.757887e-002	-6.082698e+001
4055000000	-2.246856e+000	-1.026763e+002	-2.778114e+001	-1.777154e+002	-4.125708e+001	1.693821e+002	2.036628e-001	-5.941812e+001
4070000000	5.470783e-002	-1.052759e+002	-2.772795e+001	1.758279e+002	-3.893492e+001	1.582048e+002	1.704415e-001	-5.997373e+001
4085000000	1.900973e+000	-1.107267e+002	-2.825016e+001	1.646207e+002	-3.816634e+001	1.341446e+002	-1.722852e-001	-6.226752e+001
4100000000	2.294478e+000	-1.148760e+002	-3.000039e+001	1.566573e+002	-3.976167e+001	1.069964e+002	-8.993280e-001	-6.539550e+001
4115000000	1.907480e+000	-1.111262e+002	-3.176369e+001	1.576031e+002	-4.352749e+001	8.482787e+001	-1.962296e+000	-6.833313e+001
4130000000	1.794620e+000	-1.015866e+002	-3.229191e+001	1.630810e+002	-4.978118e+001	7.165713e+001	-3.243158e+000	-7.028843e+001
4145000000	2.224732e+000	-9.214413e+001	-3.182294e+001	1.649956e+002	-5.998462e+001	1.320123e+002	-4.632777e+000	-7.173603e+001
4160000000	2.719963e+000	-8.833518e+001	-3.128682e+001	1.598360e+002	-4.982743e+001	1.653640e+002	-6.058779e+000	-7.410036e+001
4175000000	2.118406e+000	-9.082505e+001	-3.163039e+001	1.506699e+002	-4.644715e+001	1.432474e+002	-7.394913e+000	-7.968517e+001
4190000000	2.982719e-002	-9.256667e+001	-3.275395e+001	1.464418e+002	-4.623030e+001	1.227007e+002	-8.293386e+000	-9.080905e+001
4205000000	-2.551813e+000	-9.246814e+001	-3.338459e+001	1.476069e+002	-4.713764e+001	1.066345e+002	-8.177040e+000	-1.070987e+002
4220000000	-4.800961e+000	-9.935554e+001	-3.328367e+001	1.483682e+002	-4.915654e+001	9.192937e+001	-6.915744e+000	-1.235065e+002
4235000000	-5.649927e+000	-1.227877e+002	-3.288577e+001	1.429582e+002	-5.327136e+001	8.796960e+001	-5.219120e+000	-1.355222e+002
4250000000	-4.371278e+000	-1.513672e+002	-3.346634e+001	1.358077e+002	-5.330218e+001	1.136512e+002	-3.771024e+000	-1.430497e+002
4265000000	-2.763475e+000	-1.647433e+002	-3.456624e+001	1.335569e+002	-5.111994e+001	1.038714e+002	-2.802685e+000	-1.467976e+002
