!Agilent Technologies,E5071C,MY46520292,B.13.20
!Date: Sun Dec 10 03:25:54 2023
!Data & Calibration Information:
!Freq	S11:SOLT2(ON)	S21:SOLT2(ON)	S12:SOLT2(ON)	S22:SOLT2(ON)
!PortZ  Port1:50+j0    Port2:50+j0
!Above PortZ is port z conversion or system Z0 setting when saving the data.
!When reading, reference impedance value at option line is always used.
# Hz S dB R 50
3000000000	-3.014822e-001	-8.452221e+001	-4.096062e+001	1.624700e+002	-4.087340e+001	1.636029e+002	-2.807496e-001	-7.627129e+001
3005000000	-3.029404e-001	-8.542559e+001	-4.079678e+001	1.634962e+002	-4.070135e+001	1.635679e+002	-2.782655e-001	-7.717761e+001
3010000000	-2.979062e-001	-8.638498e+001	-4.045267e+001	1.627163e+002	-4.032008e+001	1.648672e+002	-2.871408e-001	-7.808421e+001
3015000000	-3.056017e-001	-8.734094e+001	-4.012735e+001	1.618681e+002	-4.014206e+001	1.637514e+002	-2.911794e-001	-7.900068e+001
3020000000	-3.118958e-001	-8.829075e+001	-3.990032e+001	1.614122e+002	-3.964500e+001	1.623133e+002	-2.957456e-001	-7.994179e+001
3025000000	-3.191191e-001	-8.929928e+001	-3.932473e+001	1.602698e+002	-3.930642e+001	1.603142e+002	-3.039873e-001	-8.091108e+001
3030000000	-3.263332e-001	-9.028324e+001	-3.900752e+001	1.577145e+002	-3.886754e+001	1.577122e+002	-3.143247e-001	-8.186853e+001
3035000000	-3.301705e-001	-9.130256e+001	-3.850962e+001	1.539004e+002	-3.842172e+001	1.545312e+002	-3.189946e-001	-8.284378e+001
3040000000	-3.363296e-001	-9.232425e+001	-3.822234e+001	1.506331e+002	-3.795763e+001	1.505388e+002	-3.250185e-001	-8.389143e+001
3045000000	-3.390822e-001	-9.338473e+001	-3.806880e+001	1.459476e+002	-3.777299e+001	1.461837e+002	-3.273770e-001	-8.491387e+001
3050000000	-3.426792e-001	-9.446885e+001	-3.789670e+001	1.422811e+002	-3.760513e+001	1.417282e+002	-3.336474e-001	-8.595540e+001
3055000000	-3.716830e-001	-9.550671e+001	-3.780402e+001	1.377014e+002	-3.764182e+001	1.371738e+002	-3.577270e-001	-8.693531e+001
3060000000	-3.951574e-001	-9.646769e+001	-3.786798e+001	1.334059e+002	-3.772662e+001	1.337481e+002	-3.840527e-001	-8.791780e+001
3065000000	-4.141964e-001	-9.736056e+001	-3.789345e+001	1.303174e+002	-3.798531e+001	1.294207e+002	-4.109444e-001	-8.890064e+001
3070000000	-4.197100e-001	-9.821718e+001	-3.798212e+001	1.280801e+002	-3.816336e+001	1.259649e+002	-4.390689e-001	-8.992888e+001
3075000000	-4.079117e-001	-9.908097e+001	-3.798782e+001	1.265269e+002	-3.833040e+001	1.239827e+002	-4.598417e-001	-9.100726e+001
3080000000	-3.824307e-001	-9.998350e+001	-3.807710e+001	1.245741e+002	-3.831636e+001	1.223077e+002	-4.780748e-001	-9.216314e+001
3085000000	-3.401688e-001	-1.009609e+002	-3.806401e+001	1.224872e+002	-3.843142e+001	1.207671e+002	-4.858193e-001	-9.336809e+001
3090000000	-2.821024e-001	-1.020149e+002	-3.791266e+001	1.215180e+002	-3.841367e+001	1.195181e+002	-4.905817e-001	-9.461667e+001
3095000000	-2.172943e-001	-1.032085e+002	-3.780428e+001	1.195752e+002	-3.846513e+001	1.186920e+002	-4.845123e-001	-9.592632e+001
3100000000	-1.543603e-001	-1.044471e+002	-3.769877e+001	1.194419e+002	-3.826582e+001	1.177915e+002	-4.700010e-001	-9.725697e+001
3105000000	-9.354696e-002	-1.058150e+002	-3.748358e+001	1.179667e+002	-3.807392e+001	1.176036e+002	-4.470035e-001	-9.863538e+001
3110000000	-4.002037e-002	-1.072420e+002	-3.720147e+001	1.168872e+002	-3.779977e+001	1.159378e+002	-4.135043e-001	-9.997822e+001
3115000000	2.461859e-003	-1.086388e+002	-3.697695e+001	1.159496e+002	-3.745635e+001	1.152155e+002	-3.767847e-001	-1.013041e+002
3120000000	3.076862e-002	-1.100393e+002	-3.652421e+001	1.148715e+002	-3.713936e+001	1.144510e+002	-3.321313e-001	-1.025828e+002
3125000000	4.272692e-002	-1.114236e+002	-3.610185e+001	1.137675e+002	-3.665532e+001	1.125762e+002	-2.778163e-001	-1.038193e+002
3130000000	4.636491e-002	-1.127115e+002	-3.555818e+001	1.121663e+002	-3.613176e+001	1.104261e+002	-2.248251e-001	-1.049544e+002
3135000000	3.482015e-002	-1.138844e+002	-3.516051e+001	1.101390e+002	-3.565632e+001	1.072255e+002	-1.736605e-001	-1.060259e+002
3140000000	1.256665e-002	-1.149460e+002	-3.467259e+001	1.074320e+002	-3.527617e+001	1.040238e+002	-1.299252e-001	-1.069653e+002
3145000000	-2.126225e-002	-1.159091e+002	-3.421671e+001	1.050541e+002	-3.489471e+001	1.007282e+002	-8.095211e-002	-1.078033e+002
3150000000	-6.507222e-002	-1.167745e+002	-3.379292e+001	1.021395e+002	-3.455034e+001	9.730370e+001	-4.089557e-002	-1.085407e+002
3155000000	-1.119818e-001	-1.176162e+002	-3.340044e+001	9.880948e+001	-3.435782e+001	9.401862e+001	-6.087355e-003	-1.091664e+002
3160000000	-1.701711e-001	-1.184240e+002	-3.304276e+001	9.582596e+001	-3.411108e+001	9.021769e+001	2.066821e-002	-1.097313e+002
3165000000	-2.378470e-001	-1.192476e+002	-3.275453e+001	9.270156e+001	-3.391577e+001	8.767366e+001	4.037024e-002	-1.102270e+002
3170000000	-3.151417e-001	-1.201388e+002	-3.255266e+001	8.975888e+001	-3.382044e+001	8.555744e+001	5.270095e-002	-1.107009e+002
3175000000	-4.015277e-001	-1.210543e+002	-3.222990e+001	8.778670e+001	-3.358063e+001	8.350222e+001	5.489656e-002	-1.111654e+002
3180000000	-5.034422e-001	-1.220848e+002	-3.190761e+001	8.533948e+001	-3.337556e+001	8.131607e+001	4.798037e-002	-1.116230e+002
3185000000	-6.080973e-001	-1.232220e+002	-3.167160e+001	8.266927e+001	-3.314445e+001	7.962721e+001	2.730267e-002	-1.121536e+002
3190000000	-7.222709e-001	-1.244628e+002	-3.135577e+001	8.057044e+001	-3.285513e+001	7.748270e+001	-3.975606e-003	-1.127265e+002
3195000000	-8.359340e-001	-1.258768e+002	-3.111955e+001	7.878029e+001	-3.254313e+001	7.551417e+001	-4.136288e-002	-1.133609e+002
3200000000	-9.469452e-001	-1.274284e+002	-3.084642e+001	7.681314e+001	-3.224297e+001	7.357885e+001	-9.278213e-002	-1.141085e+002
3205000000	-1.051680e+000	-1.292943e+002	-3.059331e+001	7.487344e+001	-3.194170e+001	7.168915e+001	-1.474250e-001	-1.149680e+002
3210000000	-1.144514e+000	-1.314492e+002	-3.030590e+001	7.360088e+001	-3.161649e+001	6.992843e+001	-2.100373e-001	-1.159620e+002
3215000000	-1.211919e+000	-1.338150e+002	-2.999534e+001	7.191801e+001	-3.129937e+001	6.799988e+001	-2.787760e-001	-1.170987e+002
3220000000	-1.258798e+000	-1.364460e+002	-2.961047e+001	7.085751e+001	-3.093347e+001	6.609150e+001	-3.561211e-001	-1.184108e+002
3225000000	-1.281314e+000	-1.393175e+002	-2.927056e+001	6.961456e+001	-3.062437e+001	6.422279e+001	-4.443703e-001	-1.198674e+002
3230000000	-1.273965e+000	-1.423705e+002	-2.885662e+001	6.866749e+001	-3.026957e+001	6.240899e+001	-5.362741e-001	-1.214722e+002
3235000000	-1.242695e+000	-1.455788e+002	-2.841476e+001	6.757554e+001	-2.991349e+001	6.088965e+001	-6.351667e-001	-1.232062e+002
3240000000	-1.192394e+000	-1.488587e+002	-2.790338e+001	6.665721e+001	-2.955496e+001	5.948358e+001	-7.373575e-001	-1.250480e+002
3245000000	-1.120894e+000	-1.521231e+002	-2.735654e+001	6.516029e+001	-2.913186e+001	5.830355e+001	-8.476276e-001	-1.270190e+002
3250000000	-1.041258e+000	-1.552642e+002	-2.678368e+001	6.366652e+001	-2.860611e+001	5.680956e+001	-9.622905e-001	-1.290735e+002
3255000000	-9.522288e-001	-1.582650e+002	-2.611711e+001	6.182649e+001	-2.806375e+001	5.534704e+001	-1.080559e+000	-1.311895e+002
3260000000	-8.491843e-001	-1.609713e+002	-2.551527e+001	5.938598e+001	-2.747571e+001	5.321410e+001	-1.202038e+000	-1.333475e+002
3265000000	-7.380386e-001	-1.634198e+002	-2.492844e+001	5.677504e+001	-2.688943e+001	5.051719e+001	-1.329362e+000	-1.355351e+002
3270000000	-6.159810e-001	-1.655750e+002	-2.439713e+001	5.364419e+001	-2.633620e+001	4.748631e+001	-1.453786e+000	-1.377320e+002
3275000000	-4.830322e-001	-1.674271e+002	-2.388237e+001	5.035055e+001	-2.580006e+001	4.416998e+001	-1.575407e+000	-1.399547e+002
3280000000	-3.405071e-001	-1.690732e+002	-2.343364e+001	4.688354e+001	-2.534216e+001	4.046855e+001	-1.695499e+000	-1.422217e+002
3285000000	-1.936124e-001	-1.705573e+002	-2.306765e+001	4.356862e+001	-2.492551e+001	3.671393e+001	-1.815820e+000	-1.445256e+002
3290000000	-3.882249e-002	-1.719585e+002	-2.273929e+001	4.025922e+001	-2.459968e+001	3.306328e+001	-1.930272e+000	-1.468726e+002
3295000000	1.102589e-001	-1.733305e+002	-2.248330e+001	3.763650e+001	-2.429422e+001	2.963017e+001	-2.038917e+000	-1.492832e+002
3300000000	2.501893e-001	-1.747452e+002	-2.222480e+001	3.535479e+001	-2.405781e+001	2.625633e+001	-2.144441e+000	-1.517661e+002
3305000000	3.625879e-001	-1.761748e+002	-2.193924e+001	3.341883e+001	-2.383656e+001	2.339616e+001	-2.235147e+000	-1.544224e+002
3310000000	4.400041e-001	-1.777323e+002	-2.162816e+001	3.185531e+001	-2.364506e+001	2.066532e+001	-2.316566e+000	-1.571760e+002
3315000000	4.846826e-001	-1.793737e+002	-2.130596e+001	3.063892e+001	-2.346612e+001	1.843288e+001	-2.392599e+000	-1.601150e+002
3320000000	4.889799e-001	1.788783e+002	-2.090742e+001	2.967905e+001	-2.325764e+001	1.671461e+001	-2.441555e+000	-1.631702e+002
3325000000	4.486762e-001	1.770397e+002	-2.045759e+001	2.861192e+001	-2.303355e+001	1.538608e+001	-2.472139e+000	-1.663912e+002
3330000000	3.728125e-001	1.751664e+002	-1.989794e+001	2.775202e+001	-2.273804e+001	1.438370e+001	-2.476051e+000	-1.697444e+002
3335000000	2.606500e-001	1.732730e+002	-1.929578e+001	2.666589e+001	-2.235268e+001	1.383372e+001	-2.470521e+000	-1.732596e+002
3340000000	1.217785e-001	1.713460e+002	-1.860940e+001	2.530509e+001	-2.187015e+001	1.332703e+001	-2.440418e+000	-1.768657e+002
3345000000	-4.048519e-002	1.693664e+002	-1.788719e+001	2.345592e+001	-2.124886e+001	1.273202e+001	-2.383115e+000	1.794995e+002
3350000000	-2.152534e-001	1.673274e+002	-1.708950e+001	2.102561e+001	-2.051395e+001	1.145313e+001	-2.305356e+000	1.758222e+002
3355000000	-4.056900e-001	1.651073e+002	-1.630086e+001	1.785082e+001	-1.970952e+001	9.543330e+000	-2.212573e+000	1.721699e+002
3360000000	-5.970183e-001	1.626316e+002	-1.552425e+001	1.392421e+001	-1.887264e+001	6.510031e+000	-2.096926e+000	1.685763e+002
3365000000	-7.890909e-001	1.598812e+002	-1.482989e+001	9.313440e+000	-1.807203e+001	2.556168e+000	-1.963801e+000	1.651220e+002
3370000000	-9.869387e-001	1.567675e+002	-1.424558e+001	4.236285e+000	-1.734676e+001	-2.209596e+000	-1.817440e+000	1.617905e+002
3375000000	-1.194269e+000	1.532694e+002	-1.378330e+001	-9.158309e-001	-1.674007e+001	-7.416705e+000	-1.655319e+000	1.585649e+002
3380000000	-1.413608e+000	1.493580e+002	-1.343812e+001	-5.975600e+000	-1.622876e+001	-1.279463e+001	-1.483708e+000	1.554307e+002
3385000000	-1.650489e+000	1.450111e+002	-1.318371e+001	-1.046191e+001	-1.582782e+001	-1.813155e+001	-1.319678e+000	1.523693e+002
3390000000	-1.898336e+000	1.402821e+002	-1.298520e+001	-1.440958e+001	-1.552252e+001	-2.329673e+001	-1.164064e+000	1.493580e+002
3395000000	-2.162169e+000	1.351966e+002	-1.280507e+001	-1.760745e+001	-1.528732e+001	-2.812980e+001	-1.016885e+000	1.464227e+002
3400000000	-2.409691e+000	1.298753e+002	-1.259088e+001	-2.022225e+001	-1.509321e+001	-3.245658e+001	-8.951661e-001	1.435331e+002
3405000000	-2.622757e+000	1.243928e+002	-1.231850e+001	-2.226312e+001	-1.493137e+001	-3.636555e+001	-7.974808e-001	1.406506e+002
3410000000	-2.789228e+000	1.188716e+002	-1.196160e+001	-2.392004e+001	-1.477840e+001	-3.971191e+001	-7.272865e-001	1.377197e+002
3415000000	-2.888342e+000	1.132588e+002	-1.149501e+001	-2.541797e+001	-1.460834e+001	-4.255977e+001	-6.946889e-001	1.347706e+002
3420000000	-2.907546e+000	1.075769e+002	-1.093129e+001	-2.708520e+001	-1.438520e+001	-4.480673e+001	-6.998981e-001	1.317601e+002
3425000000	-2.847259e+000	1.018661e+002	-1.024592e+001	-2.907171e+001	-1.409289e+001	-4.660207e+001	-7.530620e-001	1.286711e+002
3430000000	-2.706296e+000	9.617036e+001	-9.484897e+000	-3.171054e+001	-1.365964e+001	-4.807354e+001	-8.607048e-001	1.255396e+002
3435000000	-2.501396e+000	9.051344e+001	-8.661311e+000	-3.514396e+001	-1.306597e+001	-4.957075e+001	-1.028889e+000	1.224744e+002
3440000000	-2.258531e+000	8.494626e+001	-7.831416e+000	-3.953667e+001	-1.230911e+001	-5.166026e+001	-1.256997e+000	1.195339e+002
3445000000	-2.005554e+000	7.958127e+001	-7.043083e+000	-4.480213e+001	-1.142952e+001	-5.483985e+001	-1.523292e+000	1.168708e+002
3450000000	-1.771338e+000	7.446020e+001	-6.336361e+000	-5.088952e+001	-1.051230e+001	-5.944126e+001	-1.797936e+000	1.144320e+002
3455000000	-1.573835e+000	6.967654e+001	-5.741870e+000	-5.748568e+001	-9.636865e+000	-6.536639e+001	-2.046422e+000	1.120594e+002
3460000000	-1.425216e+000	6.525202e+001	-5.281796e+000	-6.435530e+001	-8.889150e+000	-7.241160e+001	-2.256852e+000	1.094194e+002
3465000000	-1.331442e+000	6.127092e+001	-4.953579e+000	-7.118586e+001	-8.285214e+000	-8.010255e+001	-2.450734e+000	1.062392e+002
3470000000	-1.299437e+000	5.771752e+001	-4.740292e+000	-7.769490e+001	-7.850432e+000	-8.816711e+001	-2.675841e+000	1.022938e+002
3475000000	-1.332202e+000	5.461734e+001	-4.606377e+000	-8.365668e+001	-7.571212e+000	-9.626261e+001	-2.978502e+000	9.760794e+001
3480000000	-1.430698e+000	5.195169e+001	-4.514848e+000	-8.903860e+001	-7.430084e+000	-1.041073e+002	-3.390542e+000	9.230616e+001
3485000000	-1.591299e+000	4.968809e+001	-4.425410e+000	-9.377041e+001	-7.408186e+000	-1.115300e+002	-3.930817e+000	8.645255e+001
3490000000	-1.811700e+000	4.769661e+001	-4.308898e+000	-9.801934e+001	-7.489226e+000	-1.184385e+002	-4.619342e+000	8.005024e+001
3495000000	-2.097751e+000	4.589592e+001	-4.129650e+000	-1.019130e+002	-7.633450e+000	-1.246024e+002	-5.462689e+000	7.308786e+001
3500000000	-2.463960e+000	4.416286e+001	-3.877957e+000	-1.056699e+002	-7.826806e+000	-1.299593e+002	-6.506357e+000	6.546462e+001
3505000000	-2.932071e+000	4.239059e+001	-3.550176e+000	-1.095284e+002	-8.019555e+000	-1.343383e+002	-7.773775e+000	5.716249e+001
3510000000	-3.543177e+000	4.050785e+001	-3.172726e+000	-1.136977e+002	-8.149940e+000	-1.377450e+002	-9.345836e+000	4.790700e+001
3515000000	-4.354764e+000	3.857094e+001	-2.760238e+000	-1.183742e+002	-8.142845e+000	-1.404467e+002	-1.131438e+001	3.745654e+001
3520000000	-5.412123e+000	3.685466e+001	-2.353798e+000	-1.235216e+002	-7.948940e+000	-1.430073e+002	-1.379099e+001	2.559516e+001
3525000000	-6.770653e+000	3.561037e+001	-1.983552e+000	-1.290978e+002	-7.584780e+000	-1.461194e+002	-1.687554e+001	1.200247e+001
3530000000	-8.460898e+000	3.566702e+001	-1.661314e+000	-1.349404e+002	-7.126228e+000	-1.503000e+002	-2.065141e+001	-3.640848e+000
3535000000	-1.049031e+001	3.766632e+001	-1.392534e+000	-1.409303e+002	-6.676577e+000	-1.555903e+002	-2.494139e+001	-2.066618e+001
3540000000	-1.278997e+001	4.278348e+001	-1.163546e+000	-1.469336e+002	-6.310097e+000	-1.617299e+002	-2.865559e+001	-3.178942e+001
3545000000	-1.517643e+001	5.164709e+001	-9.701492e-001	-1.530084e+002	-6.044908e+000	-1.682558e+002	-2.905773e+001	-2.738605e+001
3550000000	-1.736309e+001	6.427889e+001	-8.044000e-001	-1.591381e+002	-5.885280e+000	-1.748384e+002	-2.522761e+001	-2.357395e+001
3555000000	-1.918886e+001	7.861107e+001	-6.817207e-001	-1.653237e+002	-5.786445e+000	1.786833e+002	-2.073392e+001	-3.026616e+001
3560000000	-2.101741e+001	9.264635e+001	-6.166003e-001	-1.714932e+002	-5.734131e+000	1.723928e+002	-1.717352e+001	-4.100253e+001
3565000000	-2.344707e+001	1.084350e+002	-6.031170e-001	-1.774919e+002	-5.707115e+000	1.661372e+002	-1.449991e+001	-5.254498e+001
3570000000	-2.661326e+001	1.366218e+002	-6.255872e-001	1.768207e+002	-5.721297e+000	1.599323e+002	-1.258746e+001	-6.404539e+001
3575000000	-2.675163e+001	-1.744592e+002	-6.559119e-001	1.714867e+002	-5.782214e+000	1.538251e+002	-1.130644e+001	-7.527707e+001
3580000000	-2.279711e+001	-1.449431e+002	-6.691085e-001	1.664243e+002	-5.889891e+000	1.479628e+002	-1.056145e+001	-8.632861e+001
3585000000	-1.948031e+001	-1.351503e+002	-6.468154e-001	1.615052e+002	-6.026401e+000	1.425358e+002	-1.031563e+001	-9.751445e+001
3590000000	-1.737600e+001	-1.330559e+002	-5.906407e-001	1.564699e+002	-6.134264e+000	1.375445e+002	-1.058217e+001	-1.091144e+002
3595000000	-1.633045e+001	-1.342182e+002	-5.156120e-001	1.512567e+002	-6.183259e+000	1.327655e+002	-1.146690e+001	-1.217080e+002
3600000000	-1.628416e+001	-1.369190e+002	-4.491042e-001	1.457397e+002	-6.164852e+000	1.277983e+002	-1.314667e+001	-1.361655e+002
3605000000	-1.749654e+001	-1.398076e+002	-4.165003e-001	1.400068e+002	-6.117998e+000	1.222558e+002	-1.597417e+001	-1.549188e+002
3610000000	-2.059932e+001	-1.403719e+002	-4.408979e-001	1.341253e+002	-6.131267e+000	1.161504e+002	-2.029879e+001	1.726571e+002
3615000000	-2.821386e+001	-1.224116e+002	-5.251969e-001	1.283028e+002	-6.258169e+000	1.097924e+002	-2.235410e+001	1.071247e+002
3620000000	-2.619852e+001	-1.583178e+001	-6.642235e-001	1.227273e+002	-6.521166e+000	1.037541e+002	-1.818780e+001	5.953170e+001
3625000000	-1.802101e+001	-2.718290e+000	-8.463021e-001	1.175197e+002	-6.873632e+000	9.863940e+001	-1.471356e+001	3.798325e+001
3630000000	-1.370169e+001	-3.339413e+000	-1.035109e+000	1.127698e+002	-7.216494e+000	9.472979e+001	-1.253537e+001	2.511175e+001
3635000000	-1.094435e+001	-6.086610e+000	-1.212279e+000	1.084737e+002	-7.431229e+000	9.181831e+001	-1.123773e+001	1.600816e+001
3640000000	-9.059167e+000	-9.137001e+000	-1.339952e+000	1.046037e+002	-7.444615e+000	8.926893e+001	-1.052452e+001	9.463515e+000
3645000000	-7.767235e+000	-1.194353e+001	-1.395573e+000	1.009427e+002	-7.270563e+000	8.625019e+001	-1.028413e+001	4.896800e+000
3650000000	-6.904733e+000	-1.424345e+001	-1.370133e+000	9.727587e+001	-6.980326e+000	8.221401e+001	-1.042799e+001	2.447049e+000
3655000000	-6.389640e+000	-1.588231e+001	-1.277126e+000	9.341104e+001	-6.663715e+000	7.709148e+001	-1.089681e+001	3.005435e+000
3660000000	-6.151254e+000	-1.652287e+001	-1.136516e+000	8.919424e+001	-6.390487e+000	7.101240e+001	-1.146029e+001	7.843058e+000
3665000000	-6.116461e+000	-1.591229e+001	-9.749174e-001	8.457002e+001	-6.202707e+000	6.429262e+001	-1.160915e+001	1.720905e+001
3670000000	-6.171254e+000	-1.376304e+001	-8.033258e-001	7.958797e+001	-6.099373e+000	5.724258e+001	-1.083557e+001	2.770080e+001
3675000000	-6.189374e+000	-1.028320e+001	-6.262610e-001	7.424816e+001	-6.070532e+000	5.004302e+001	-9.348092e+000	3.431569e+001
3680000000	-6.059817e+000	-6.131375e+000	-4.532174e-001	6.850548e+001	-6.092784e+000	4.276468e+001	-7.733431e+000	3.566844e+001
3685000000	-5.778242e+000	-2.419473e+000	-2.951788e-001	6.226633e+001	-6.166416e+000	3.526111e+001	-6.388928e+000	3.292473e+001
3690000000	-5.447880e+000	2.657409e-002	-1.883619e-001	5.554363e+001	-6.321964e+000	2.752216e+001	-5.472317e+000	2.761544e+001
3695000000	-5.216241e+000	1.096884e+000	-1.667126e-001	4.844389e+001	-6.582183e+000	1.977265e+001	-5.036815e+000	2.096119e+001
3700000000	-5.217622e+000	1.277441e+000	-2.475367e-001	4.131899e+001	-6.967001e+000	1.233785e+001	-5.108331e+000	1.395118e+001
3705000000	-5.508121e+000	1.304888e+000	-4.055266e-001	3.447577e+001	-7.425965e+000	5.647726e+000	-5.678551e+000	7.484793e+000
3710000000	-6.114741e+000	2.036979e+000	-6.012797e-001	2.809851e+001	-7.885438e+000	-1.321546e-001	-6.780004e+000	2.417024e+000
3715000000	-7.026566e+000	4.356253e+000	-7.749986e-001	2.213534e+001	-8.253591e+000	-5.205919e+000	-8.488166e+000	1.675662e-001
3720000000	-8.193603e+000	9.671603e+000	-8.920672e-001	1.628135e+001	-8.480243e+000	-1.020403e+001	-1.085992e+001	3.987502e+000
3725000000	-9.386625e+000	1.968581e+001	-9.412085e-001	1.011735e+001	-8.589061e+000	-1.592861e+001	-1.330124e+001	2.110518e+001
3730000000	-9.976872e+000	3.525986e+001	-9.660884e-001	3.244174e+000	-8.691405e+000	-2.286429e+001	-1.309792e+001	4.987673e+001
3735000000	-9.304756e+000	5.188008e+001	-1.053639e+000	-4.479883e+000	-8.935059e+000	-3.098947e+001	-1.036176e+001	6.621746e+001
3740000000	-7.753342e+000	6.289368e+001	-1.269340e+000	-1.271748e+001	-9.437295e+000	-3.947783e+001	-7.877379e+000	6.944534e+001
3745000000	-6.143298e+000	6.788844e+001	-1.644758e+000	-2.102123e+001	-1.021345e+001	-4.709644e+001	-6.208013e+000	6.780485e+001
3750000000	-4.811918e+000	6.917838e+001	-2.149109e+000	-2.891560e+001	-1.115013e+001	-5.277383e+001	-5.165053e+000	6.527969e+001
3755000000	-3.773032e+000	6.848319e+001	-2.729064e+000	-3.626135e+001	-1.202112e+001	-5.596237e+001	-4.479252e+000	6.345133e+001
